
**** 10/09/09 19:41:16 ********* PSpice 9.2 (Mar 2000) ******** ID# 0 ********

 ** Profile: "Example PS.12.1 Slew Rate-slew"  [ C:\Documents and Settings\Administrator\My Documents\SPICE Examples Converted\Append


 ****     CIRCUIT DESCRIPTION


******************************************************************************




** Creating circuit file "appendix b-ps.12-example ps.12.1 slew rate-slew.sim.cir" 
** WARNING: THIS AUTOMATICALLY GENERATED FILE MAY BE OVERWRITTEN BY SUBSEQUENT SIMULATIONS

*Libraries: 
* Local Libraries :
.LIB "..\sedra_lib.lib" 
* From [PSPICE NETLIST] section of C:\Program Files\Orcad\PSpice\PSpice.ini file:
.lib "nom.lib" 

*Analysis directives: 
.TRAN  0 0.25u 0 0.01n 
.STEP PARAM R LIST 1.53K 3.2K 
.PROBE V(alias(*)) I(alias(*)) W(alias(*)) D(alias(*)) NOISE(alias(*)) 
.INC ".\Appendix B-PS.12-Example PS.12.1 Slew Rate.net" 



**** INCLUDING "Appendix B-PS.12-Example PS.12.1 Slew Rate.net" ****
* source APPENDIX B-PS.12
R_R         A N136150  {R}  
M_M3         B B 0 0 NMOS0P5  
+ L=0.6u  
+ W=1.25u  
+ AD=1.72E-12  
+ AS=1.72E-12  
+ PD=5.25E-6  
+ PS=5.25E-6      
+ M={M3}
C_Cc         N136150 OUT  {Cc}  
M_M2         A IN N135996 N135996 PMOS0P5  
+ L=0.6u  
+ W=1.25u  
+ AD=1.72E-12  
+ AS=1.72E-12  
+ PD=5.25e-6  
+ PS=5.25E-6      
+ M={M2}
C_CL         0 OUT  {Cload}  
M_M6         OUT A 0 0 NMOS0P5  
+ L=0.6u  
+ W=1.25u  
+ AD=1.72E-12  
+ AS=1.72E-12  
+ PD=5.25E-6  
+ PS=5.25E-6      
+ M={M6}
M_M1         B OUT N135996 N135996 PMOS0P5  
+ L=0.6u  
+ W=1.25u  
+ AD=1.72E-12  
+ AS=1.72E-12  
+ PD=5.25e-6  
+ PS=5.25E-6      
+ M={M1}
V_VCC         VDD 0 {VDD}
V_Vpulse         IN 0 DC 1.65 
+PULSE {1.65+{Vstep}/2} {1.65-{Vstep}/2} 0 1p 1p 0.1u 0.2u
M_M8         N135944 N135944 VDD VDD PMOS0P5  
+ L=0.6u  
+ W=1.25u  
+ AD=1.72E-12  
+ AS=1.72E-12  
+ PD=5.25e-6  
+ PS=5.25E-6      
+ M={M8}
M_M5         N135996 N135944 VDD VDD PMOS0P5  
+ L=0.6u  
+ W=1.25u  
+ AD=1.72E-12  
+ AS=1.72E-12  
+ PD=5.25e-6  
+ PS=5.25E-6      
+ M={M5}
I_Iref         N135944 0 DC {Iref}  
M_M4         A B 0 0 NMOS0P5  
+ L=0.6u  
+ W=1.25u  
+ AD=1.72E-12  
+ AS=1.72E-12  
+ PD=5.25E-6  
+ PS=5.25E-6      
+ M={M4}
M_M7         OUT N135944 VDD VDD PMOS0P5  
+ L=0.6u  
+ W=1.25u  
+ AD=1.72E-12  
+ AS=1.72E-12  
+ PD=5.25e-6  
+ PS=5.25E-6      
+ M={M7}
.PARAM  VDD=3.3 Cload=1p M1=8 M2=8 Iref=90u M3=2 M4=2 M5=16 VCM=1.65 M6=4 M7=16
+  M8=16 Vstep=10m R=3.2K Gain=-10 Cc=0.6p

**** RESUMING "appendix b-ps.12-example ps.12.1 slew rate-slew.sim.cir" ****
.END

WARNING -- LAMBDA for MOSFET model PMOS0P5 is unusually
           large and might cause nonconvergence

**** 10/09/09 19:41:16 ********* PSpice 9.2 (Mar 2000) ******** ID# 0 ********

 ** Profile: "Example PS.12.1 Slew Rate-slew"  [ C:\Documents and Settings\Administrator\My Documents\SPICE Examples Converted\Append


 ****     MOSFET MODEL PARAMETERS


******************************************************************************




               NMOS0P5         PMOS0P5         
               NMOS            PMOS            
       LEVEL    1               1            
           L  100.000000E-06  100.000000E-06 
           W  100.000000E-06  100.000000E-06 
          LD   80.000000E-09   90.000000E-09 
         VTO     .7             -.8          
          KP  167.204900E-06   41.801210E-06 
       GAMMA     .5              .45         
         PHI     .8              .8          
      LAMBDA    1.000000E-03     .2          
          IS   10.000000E-15   10.000000E-15 
          JS   10.000000E-09    5.000000E-09 
          PB     .9              .9          
        PBSW     .9              .9          
          CJ  570.000000E-06  930.000000E-06 
        CJSW  120.000000E-12  170.000000E-12 
        MJSW     .4              .35         
        CGSO  400.000000E-12  350.000000E-12 
        CGDO  400.000000E-12  350.000000E-12 
        CGBO  380.000000E-12  380.000000E-12 
         TOX    9.500000E-09    9.500000E-09 
          XJ    0               0            
          UO  460             115            
       UCRIT   10.000000E+03   10.000000E+03 
      DIOMOD    1               1            
         VFB    0               0            
        LETA    0               0            
        WETA    0               0            
          U0    0               0            
        TEMP    0               0            
         VDD    0               0            
       XPART    0               0            


WARNING -- LAMBDA for MOSFET model PMOS0P5 is unusually
           large and might cause nonconvergence

WARNING -- LAMBDA for MOSFET model PMOS0P5 is unusually
           large and might cause nonconvergence

**** 10/09/09 19:41:16 ********* PSpice 9.2 (Mar 2000) ******** ID# 0 ********

 ** Profile: "Example PS.12.1 Slew Rate-slew"  [ C:\Documents and Settings\Administrator\My Documents\SPICE Examples Converted\Append


 ****     INITIAL TRANSIENT SOLUTION       TEMPERATURE =   27.000 DEG C

 ****     CURRENT STEP                     PARAM R =    1.5300E+03


******************************************************************************



 NODE   VOLTAGE     NODE   VOLTAGE     NODE   VOLTAGE     NODE   VOLTAGE


(    A)    1.0217  (    B)     .9953  (   IN)    1.6550  (  OUT)    1.6555      

(  VDD)    3.3000  (N135944)    2.2271                   (N135996)    2.7047    

(N136150)    1.0217                   




    VOLTAGE SOURCE CURRENTS
    NAME         CURRENT

    V_VCC       -2.714E-04
    V_Vpulse     0.000E+00

    TOTAL POWER DISSIPATION   8.96E-04  WATTS


WARNING -- LAMBDA for MOSFET model PMOS0P5 is unusually
           large and might cause nonconvergence

WARNING -- LAMBDA for MOSFET model PMOS0P5 is unusually
           large and might cause nonconvergence

**** 10/09/09 19:41:16 ********* PSpice 9.2 (Mar 2000) ******** ID# 0 ********

 ** Profile: "Example PS.12.1 Slew Rate-slew"  [ C:\Documents and Settings\Administrator\My Documents\SPICE Examples Converted\Append


 ****     INITIAL TRANSIENT SOLUTION       TEMPERATURE =   27.000 DEG C

 ****     CURRENT STEP                     PARAM R =    3.2000E+03


******************************************************************************



 NODE   VOLTAGE     NODE   VOLTAGE     NODE   VOLTAGE     NODE   VOLTAGE


(    A)    1.0217  (    B)     .9953  (   IN)    1.6550  (  OUT)    1.6555      

(  VDD)    3.3000  (N135944)    2.2271                   (N135996)    2.7047    

(N136150)    1.0217                   




    VOLTAGE SOURCE CURRENTS
    NAME         CURRENT

    V_VCC       -2.714E-04
    V_Vpulse     0.000E+00

    TOTAL POWER DISSIPATION   8.96E-04  WATTS


WARNING -- LAMBDA for MOSFET model PMOS0P5 is unusually
           large and might cause nonconvergence


          JOB CONCLUDED

          TOTAL JOB TIME            6.00
