
**** 09/25/03 16:33:19 ******* PSpice 9.2.3WU (Sep 2002) ****** ID# 1111111111 
 ** Profile: "Wien-Bridge-tets"  [ C:\Documents and Settings\Adel Sedra\My Documents\SEDRA WORK\SEDRA-PSPICE-CD\CHAPTER 13\chapter 13


 ****     CIRCUIT DESCRIPTION


******************************************************************************




** Creating circuit file "chapter 13-Wien-Bridge-tets.sim.cir" 
** WARNING: THIS AUTOMATICALLY GENERATED FILE MAY BE OVERWRITTEN BY SUBSEQUENT SIMULATIONS

*Libraries: 
* Local Libraries :
.LIB "..\sedra_lib.lib" 
* From [PSPICE NETLIST] section of e:\cadence\tools\PSpice\PSpice.ini file:
.lib "nom.lib" 

*Analysis directives: 
.PROBE V(alias(*)) I(alias(*)) W(alias(*)) D(alias(*)) NOISE(alias(*)) 
.INC ".\chapter 13-Wien-Bridge.net" 



**** INCLUDING "chapter 13-Wien-Bridge.net" ****
* source CHAPTER 13
C_C4         N00375 N00279  {C4} IC=0 
X_U1         N00279 N00504 VCC VEE A uA741
R_R1b         N00504 OUT  {R1b}  
C_C3         0 N00279  {C3} IC=0 
R_R4         N00375 A  {R4}  
D_D1         A OUT D1N4148 
R_R3         0 N00279  {R3}  
V_VCC         VCC 0 {VCC}
R_R2         OUT A  {R2}  
V_VEE         VEE 0 {VEE}
R_R1a         0 N00504  {R1a}  
D_D2         OUT A D1N4148 
.PARAM  VEE=-15 VCC=15 C3=16n R2=10K C4=16n R3=10K R4=10K R1a=18K R1b={50K-
+ {R1a}}

**** RESUMING "chapter 13-Wien-Bridge-tets.sim.cir" ****
.END

**** 09/25/03 16:33:19 ******* PSpice 9.2.3WU (Sep 2002) ****** ID# 1111111111 
 ** Profile: "Wien-Bridge-tets"  [ C:\Documents and Settings\Adel Sedra\My Documents\SEDRA WORK\SEDRA-PSPICE-CD\CHAPTER 13\chapter 13


 ****     Diode MODEL PARAMETERS


******************************************************************************




               D1N4148         X_U1.dx         X_U1.dy         
          IS    2.682000E-09  800.000000E-18  800.000000E-18 
           N    1.836                                        
         ISR    1.565000E-09                                 
         IKF     .04417                                      
          BV  100                                            
         IBV  100.000000E-06                                 
          RS     .5664          1               1.000000E-03 
          TT   11.540000E-09                                 
         CJO    4.000000E-12                   10.000000E-12 
          VJ     .5                                          
           M     .3333                                       


**** 09/25/03 16:33:19 ******* PSpice 9.2.3WU (Sep 2002) ****** ID# 1111111111 
 ** Profile: "Wien-Bridge-tets"  [ C:\Documents and Settings\Adel Sedra\My Documents\SEDRA WORK\SEDRA-PSPICE-CD\CHAPTER 13\chapter 13


 ****     BJT MODEL PARAMETERS


******************************************************************************




               X_U1.qx         
               NPN             
          IS  800.000000E-18 
          BF   93.75         
          NF    1            
          BR    1            
          NR    1            
          CN    2.42         
           D     .87         


**** 09/25/03 16:33:19 ******* PSpice 9.2.3WU (Sep 2002) ****** ID# 1111111111 
 ** Profile: "Wien-Bridge-tets"  [ C:\Documents and Settings\Adel Sedra\My Documents\SEDRA WORK\SEDRA-PSPICE-CD\CHAPTER 13\chapter 13


 ****     SMALL SIGNAL BIAS SOLUTION       TEMPERATURE =   27.000 DEG C


******************************************************************************



 NODE   VOLTAGE     NODE   VOLTAGE     NODE   VOLTAGE     NODE   VOLTAGE


(    A)     .0034  (  OUT)     .0026  (  VCC)   15.0000  (  VEE)  -15.0000      

(N00279) 523.1E-12 (N00375) 1.206E-09 (N00504) 19.23E-06 (X_U1.6)-328.0E-09     

(X_U1.7)     .0034 (X_U1.8)     .0034 (X_U1.9)    0.0000 (X_U1.10)    -.6077    

(X_U1.11)   14.9600                   (X_U1.12)   14.9600                       

(X_U1.13)    -.5938                   (X_U1.14)    -.5938                       

(X_U1.53)   14.0000                   (X_U1.54)  -14.0000                       

(X_U1.90) 422.1E-06                   (X_U1.91)   40.0000                       

(X_U1.92)  -40.0000                   (X_U1.99)    0.0000                   




    VOLTAGE SOURCE CURRENTS
    NAME         CURRENT

    V_VCC       -1.667E-03
    V_VEE        1.667E-03
    X_U1.vb     -3.280E-12
    X_U1.vc      1.400E-11
    X_U1.ve      1.456E-11
    X_U1.vlim    4.221E-07
    X_U1.vlp    -4.000E-11
    X_U1.vln    -4.000E-11

    TOTAL POWER DISSIPATION   5.00E-02  WATTS



          JOB CONCLUDED

**** 09/25/03 16:33:19 ******* PSpice 9.2.3WU (Sep 2002) ****** ID# 1111111111 
 ** Profile: "Wien-Bridge-tets"  [ C:\Documents and Settings\Adel Sedra\My Documents\SEDRA WORK\SEDRA-PSPICE-CD\CHAPTER 13\chapter 13


 ****     JOB STATISTICS SUMMARY


******************************************************************************



  Total job time (using Solver 1)   =         .04
