
**** 10/02/03 15:39:18 ******* PSpice 9.2.3WU (Sep 2002) ****** ID# 1111111111 
 ** Profile: "Example 6.15-Bias"  [ C:\Documents and Settings\Adel Sedra\My Documents\SEDRA WORK\SEDRA-PSPICE-CD\CHAPTER 6\chapter 6-


 ****     CIRCUIT DESCRIPTION


******************************************************************************




** Creating circuit file "chapter 6-Example 6.15-Bias.sim.cir" 
** WARNING: THIS AUTOMATICALLY GENERATED FILE MAY BE OVERWRITTEN BY SUBSEQUENT SIMULATIONS

*Libraries: 
* Local Libraries :
.LIB "..\sedra_lib.lib" 
* From [PSPICE NETLIST] section of e:\cadence\tools\PSpice\PSpice.ini file:
.lib "nom.lib" 

*Analysis directives: 
.OP
.PROBE V(alias(*)) I(alias(*)) W(alias(*)) D(alias(*)) NOISE(alias(*)) 
.INC ".\chapter 6-Example 6.15.net" 



**** INCLUDING "chapter 6-Example 6.15.net" ****
* source CHAPTER 6
M_M3         N236360 N236360 VDD VDD PMOS5P0  
+ L=6u  
+ W=37.5u  
+ AD=1.72E-10  
+ AS=1.72E-10  
+ PD=5.25e-5  
+ PS=5.25E-5      
+ M={M}
V_Vin         IN 0 DC 1.5Vdc AC 1Vac 
M_M1         OUT IN 0 0 NMOS5P0  
+ L=6u  
+ W={W}  
+ AD=1.72E-12  
+ AS=1.72E-12  
+ PD=5.25E-6  
+ PS=5.25E-6      
+ M={M1}
I_I2         N236360 0 DC {Iref}  
M_M2         OUT N236360 VDD VDD PMOS5P0  
+ L=6u  
+ W=37.5u  
+ AD=1.72E-10  
+ AS=1.72E-10  
+ PD=5.25e-5  
+ PS=5.25E-5      
+ M={M}
V_V2         VDD 0 {VDD}
.PARAM  VDD=10 W=12.5u M1=10 Iref=100u M=2

**** RESUMING "chapter 6-Example 6.15-Bias.sim.cir" ****
.END

**** 10/02/03 15:39:18 ******* PSpice 9.2.3WU (Sep 2002) ****** ID# 1111111111 
 ** Profile: "Example 6.15-Bias"  [ C:\Documents and Settings\Adel Sedra\My Documents\SEDRA WORK\SEDRA-PSPICE-CD\CHAPTER 6\chapter 6-


 ****     MOSFET MODEL PARAMETERS


******************************************************************************




               PMOS5P0         NMOS5P0         
               PMOS            NMOS            
       LEVEL    1               1            
           L  100.000000E-06  100.000000E-06 
           W  100.000000E-06  100.000000E-06 
          LD  600.000000E-09  700.000000E-09 
         VTO   -1               1            
          KP   10.156300E-06   30.468910E-06 
       GAMMA     .65            1.4          
         PHI     .65             .7          
      LAMBDA     .03             .01         
          IS   10.000000E-15   10.000000E-15 
          JS    1.000000E-06    1.000000E-06 
          PB     .7              .7          
        PBSW     .7              .7          
          CJ  180.000000E-06  400.000000E-06 
        CJSW  600.000000E-12  800.000000E-12 
        MJSW     .5              .5          
        CGSO  400.000000E-12  400.000000E-12 
        CGDO  400.000000E-12  400.000000E-12 
        CGBO  200.000000E-12  200.000000E-12 
         TOX   85.000000E-09   85.000000E-09 
          XJ    0               0            
          UO  250             750            
       UCRIT   10.000000E+03   10.000000E+03 
      DIOMOD    1               1            
         VFB    0               0            
        LETA    0               0            
        WETA    0               0            
          U0    0               0            
        TEMP    0               0            
         VDD    0               0            
       XPART    0               0            


**** 10/02/03 15:39:18 ******* PSpice 9.2.3WU (Sep 2002) ****** ID# 1111111111 
 ** Profile: "Example 6.15-Bias"  [ C:\Documents and Settings\Adel Sedra\My Documents\SEDRA WORK\SEDRA-PSPICE-CD\CHAPTER 6\chapter 6-


 ****     SMALL SIGNAL BIAS SOLUTION       TEMPERATURE =   27.000 DEG C


******************************************************************************



 NODE   VOLTAGE     NODE   VOLTAGE     NODE   VOLTAGE     NODE   VOLTAGE


(   IN)    1.5000  (  OUT)    4.8829  (  VDD)   10.0000  (N236360)    7.9110    




    VOLTAGE SOURCE CURRENTS
    NAME         CURRENT

    V_Vin        0.000E+00
    V_V2        -2.085E-04

    TOTAL POWER DISSIPATION   2.09E-03  WATTS


**** 10/02/03 15:39:18 ******* PSpice 9.2.3WU (Sep 2002) ****** ID# 1111111111 
 ** Profile: "Example 6.15-Bias"  [ C:\Documents and Settings\Adel Sedra\My Documents\SEDRA WORK\SEDRA-PSPICE-CD\CHAPTER 6\chapter 6-


 ****     OPERATING POINT INFORMATION      TEMPERATURE =   27.000 DEG C


******************************************************************************






**** MOSFETS


NAME         M_M3        M_M1        M_M2      
MODEL        PMOS5P0     NMOS5P0     PMOS5P0   
ID          -1.00E-04    1.09E-04   -1.09E-04 
VGS         -2.09E+00    1.50E+00   -2.09E+00 
VDS         -2.09E+00    4.88E+00   -5.12E+00 
VBS          0.00E+00    0.00E+00    0.00E+00 
VTH         -1.00E+00    1.00E+00   -1.00E+00 
VDSAT       -1.09E+00    5.00E-01   -1.09E+00 
Lin0/Sat1   -1.00E+00   -1.00E+00   -1.00E+00 
if          -1.00E+00   -1.00E+00   -1.00E+00 
ir          -1.00E+00   -1.00E+00   -1.00E+00 
TAU         -1.00E+00   -1.00E+00   -1.00E+00 
GM           1.84E-04    4.34E-04    1.99E-04 
GDS          2.82E-06    1.04E-06    2.82E-06 
GMB          7.40E-05    3.63E-04    8.04E-05 
CBD          6.26E-14    1.73E-14    4.33E-14 
CBS          1.25E-13    4.89E-14    1.25E-13 
CGSOV        3.00E-14    5.00E-14    3.00E-14 
CGDOV        3.00E-14    5.00E-14    3.00E-14 
CGBOV        9.60E-16    9.20E-16    9.60E-16 
CGS          9.75E-14    1.56E-13    9.75E-14 
CGD          0.00E+00    0.00E+00    0.00E+00 
CGB          0.00E+00    0.00E+00    0.00E+00 

          JOB CONCLUDED

**** 10/02/03 15:39:18 ******* PSpice 9.2.3WU (Sep 2002) ****** ID# 1111111111 
 ** Profile: "Example 6.15-Bias"  [ C:\Documents and Settings\Adel Sedra\My Documents\SEDRA WORK\SEDRA-PSPICE-CD\CHAPTER 6\chapter 6-


 ****     JOB STATISTICS SUMMARY


******************************************************************************



  Total job time (using Solver 1)   =         .10
