
**** 10/02/03 17:27:09 ******* PSpice 9.2.3WU (Sep 2002) ****** ID# 1111111111 
 ** Profile: "Example 8.7-AC"  [ C:\Documents and Settings\Adel Sedra\My Documents\SEDRA WORK\SEDRA-PSPICE-CD\CHAPTER 8\chapter 8-exa


 ****     CIRCUIT DESCRIPTION


******************************************************************************




** Creating circuit file "chapter 8-example 8.7-ac.sim.cir" 
** WARNING: THIS AUTOMATICALLY GENERATED FILE MAY BE OVERWRITTEN BY SUBSEQUENT SIMULATIONS

*Libraries: 
* Local Libraries :
.LIB "..\sedra_lib.lib" 
* From [PSPICE NETLIST] section of e:\cadence\tools\PSpice\PSpice.ini file:
.lib "nom.lib" 

*Analysis directives: 
.AC DEC 15 1 1E9
.OP
.PROBE V(alias(*)) I(alias(*)) W(alias(*)) D(alias(*)) NOISE(alias(*)) 
.INC ".\chapter 8-Example 8.7.net" 



**** INCLUDING "chapter 8-Example 8.7.net" ****
* source CHAPTER 8
Q_Q4         N17833 N19968 N17931 Q2N3904
R_Re7         N32729 0  {RE1}  
R_RE10         N44736 0  {RE2}  
Q_Q5         OC N44714 N44746 Q2N3904
C_CC3         N17833 N17867  {CC2}  
R_Re1         N00686 0  {RE1}  
C_Cc1         N002371 N00533  {CC1}  
R_RF1         N18149 N17923  {RF}  
C_Cc8         N325131 N32699  {CC1}  
L_LT         RETURNED N20559  {LT}  
R_RF4         N44906 N44714  {RF}  
R_RC3         N17833 VCC  {RC2}  
R_RE8         N32707 0  {RE2}  
C_CE1         0 N00686  {CE1}  
R_RL4         N44676 0  {RL}  
Q_Q7         N32733 N32699 N32729 Q2N3904
R_RE2         N00586 0  {RE2}  
Q_Q6         N44632 N45022 N44736 Q2N3904
V_Vt1         N45755 0 DC 0Vdc AC 1Vac 
C_CF         N02045 N00586  {CF}  
C_CF1         N18149 N17931  {CF}  
V_VCC         VCC 0 DC={VCC}
R_RF3         N32883 N32699  {RF}  
C_CF4         N44906 N44736  {CF}  
R_RC4         N17957 VCC  {RC1}  
R_RL3         N32643 0  {RL}  
R_RL         N00407 0  {RL}  
C_CTI3         N335690 N32733  {CTI}  
C_CC9         N44632 N44676  {CC2}  
Q_Q8         N32609 N33015 N32707 Q2N3904
R_RC9         N44632 VCC  {RC2}  
Q_Q1         RETURNED N00533 N00686 Q2N3904
C_CF3         N32883 N32707  {CF}  
R_Rb3         N17923 VCC  {RB1}  
C_CC7         N32609 N32643  {CC2}  
C_CC2         N00348 N00407  {CC2}  
R_RC7         N32609 VCC  {RC2}  
R_RC10         OC VCC  {RC1}  
Q_Q2         N00348 N20559 N00586 Q2N3904
C_CE2         0 N17953  {CE1}  
R_Rb4         0 N17923  {RB2}  
C_CTI         N20903 N20559  {CTI}  
C_CE5         0 N44746  {CE1}  
R_RC8         N32733 VCC  {RC1}  
R_Rb9         N44714 VCC  {RB1}  
R_RC2         N00348 VCC  {RC2}  
C_CE4         0 N32729  {CE1}  
R_RS1         N177371 0  {Rs}  
L_LT1         N17957 N19968  {LT}  
R_Rb7         N32699 VCC  {RB1}  
V_Vt         N20903 0 DC 0Vdc AC 1Vac 
R_Rb10         0 N44714  {RB2}  
R_RC1         RETURNED VCC  {RC1}  
R_Re3         N17953 0  {RE1}  
L_LT3         OC N45022  {LT}  
C_CTI1         N19968 RETURNED  {CTI}  
I_It         N33015 0 DC 0Adc AC -1Aac 
R_Rb1         N00533 VCC  {RB1}  
Q_Q3         N17957 N17923 N17953 Q2N3904
R_Rb8         0 N32699  {RB2}  
R_RS4         N445361 0  {Rs}  
R_RE4         N17931 0  {RE2}  
C_CTI4         N45755 N45022  {CTI}  
V_Vsc         N335690 0 DC 0Vdc AC 0Vac 
R_Rb2         0 N00533  {RB2}  
R_RS3         N325131 0  {Rs}  
L_LT2         N32733 N33015  {LT}  
R_Re9         N44746 0  {RE1}  
C_Cc4         N177371 N17923  {CC1}  
R_RL1         N17867 0  {RL}  
R_RF         N02045 N00533  {RF}  
C_Cc10         N445361 N44714  {CC1}  
R_RS         N002371 0  {Rs}  
.PARAM  VCC=12 RS=10K CF=1K RF=10K CTI=1K LT=1E9 RL=1K RE1=870 cap=1K RE2=3.4K
+  CE1=1K RC1=10k RC2=8K RB1=100K CC1=1K RB2=15K CC2=1K

**** RESUMING "chapter 8-example 8.7-ac.sim.cir" ****
.END

**** 10/02/03 17:27:09 ******* PSpice 9.2.3WU (Sep 2002) ****** ID# 1111111111 
 ** Profile: "Example 8.7-AC"  [ C:\Documents and Settings\Adel Sedra\My Documents\SEDRA WORK\SEDRA-PSPICE-CD\CHAPTER 8\chapter 8-exa


 ****     BJT MODEL PARAMETERS


******************************************************************************




               Q2N3904         
               NPN             
          IS    6.734000E-15 
          BF  416.4          
          NF    1            
         VAF   74.03         
         IKF     .06678      
         ISE    6.734000E-15 
          NE    1.259        
          BR     .7371       
          NR    1            
          RB   10            
          RC    1            
         CJE    4.493000E-12 
         MJE     .2593       
         CJC    3.638000E-12 
         MJC     .3085       
          TF  301.200000E-12 
         XTF    2            
         VTF    4            
         ITF     .4          
          TR  239.500000E-09 
         XTB    1.5          
          CN    2.42         
           D     .87         


**** 10/02/03 17:27:09 ******* PSpice 9.2.3WU (Sep 2002) ****** ID# 1111111111 
 ** Profile: "Example 8.7-AC"  [ C:\Documents and Settings\Adel Sedra\My Documents\SEDRA WORK\SEDRA-PSPICE-CD\CHAPTER 8\chapter 8-exa


 ****     SMALL SIGNAL BIAS SOLUTION       TEMPERATURE =   27.000 DEG C


******************************************************************************



 NODE   VOLTAGE     NODE   VOLTAGE     NODE   VOLTAGE     NODE   VOLTAGE


(   OC)    2.6974  (  VCC)   12.0000  (N00348)    7.2208 (N00407)    0.0000     

(N00533)    1.4747 (N00586)    2.0467 (N00686)     .8114 (N02045)    1.4747     

(N17833)    7.2208 (N17867)    0.0000 (N17923)    1.4747 (N17931)    2.0467     

(N17953)     .8114 (N17957)    2.6974 (N18149)    1.4747 (N19968)    2.6974     

(N20559)    2.6974 (N20903)    0.0000 (N32609)    7.2208 (N32643)    0.0000     

(N32699)    1.4747 (N32707)    2.0467 (N32729)     .8114 (N32733)    2.6974     

(N32883)    1.4747 (N33015)    2.6974 (N44632)    7.2208 (N44676)    0.0000     

(N44714)    1.4747 (N44736)    2.0467 (N44746)     .8114 (N44906)    1.4747     

(N45022)    2.6974 (N45755)    0.0000 (N002371)    0.0000                       

(N177371)    0.0000                   (N325131)    0.0000                       

(N335690)    0.0000                   (N445361)    0.0000                       

(RETURNED)    2.6974                  




    VOLTAGE SOURCE CURRENTS
    NAME         CURRENT

    V_Vt1        0.000E+00
    V_VCC       -6.532E-03
    V_Vt         0.000E+00
    V_Vsc        0.000E+00

    TOTAL POWER DISSIPATION   7.84E-02  WATTS


**** 10/02/03 17:27:09 ******* PSpice 9.2.3WU (Sep 2002) ****** ID# 1111111111 
 ** Profile: "Example 8.7-AC"  [ C:\Documents and Settings\Adel Sedra\My Documents\SEDRA WORK\SEDRA-PSPICE-CD\CHAPTER 8\chapter 8-exa


 ****     OPERATING POINT INFORMATION      TEMPERATURE =   27.000 DEG C


******************************************************************************






**** BIPOLAR JUNCTION TRANSISTORS


NAME         Q_Q4        Q_Q5        Q_Q7        Q_Q6        Q_Q8      
MODEL        Q2N3904     Q2N3904     Q2N3904     Q2N3904     Q2N3904   
IB           4.57E-06    6.94E-06    6.94E-06    4.57E-06    4.57E-06 
IC           5.97E-04    9.26E-04    9.26E-04    5.97E-04    5.97E-04 
VBE          6.51E-01    6.63E-01    6.63E-01    6.51E-01    6.51E-01 
VBC         -4.52E+00   -1.22E+00   -1.22E+00   -4.52E+00   -4.52E+00 
VCE          5.17E+00    1.89E+00    1.89E+00    5.17E+00    5.17E+00 
BETADC       1.31E+02    1.33E+02    1.33E+02    1.31E+02    1.31E+02 
GM           2.29E-02    3.53E-02    3.53E-02    2.29E-02    2.29E-02 
RPI          6.61E+03    4.33E+03    4.33E+03    6.61E+03    6.61E+03 
RX           1.00E+01    1.00E+01    1.00E+01    1.00E+01    1.00E+01 
RO           1.31E+05    8.13E+04    8.13E+04    1.31E+05    1.31E+05 
CBE          1.33E-11    1.71E-11    1.71E-11    1.33E-11    1.33E-11 
CBC          1.99E-12    2.70E-12    2.70E-12    1.99E-12    1.99E-12 
CJS          0.00E+00    0.00E+00    0.00E+00    0.00E+00    0.00E+00 
BETAAC       1.51E+02    1.53E+02    1.53E+02    1.51E+02    1.51E+02 
CBX/CBX2     0.00E+00    0.00E+00    0.00E+00    0.00E+00    0.00E+00 
FT/FT2       2.38E+08    2.84E+08    2.84E+08    2.38E+08    2.38E+08 



NAME         Q_Q1        Q_Q2        Q_Q3      
MODEL        Q2N3904     Q2N3904     Q2N3904   
IB           6.94E-06    4.57E-06    6.94E-06 
IC           9.26E-04    5.97E-04    9.26E-04 
VBE          6.63E-01    6.51E-01    6.63E-01 
VBC         -1.22E+00   -4.52E+00   -1.22E+00 
VCE          1.89E+00    5.17E+00    1.89E+00 
BETADC       1.33E+02    1.31E+02    1.33E+02 
GM           3.53E-02    2.29E-02    3.53E-02 
RPI          4.33E+03    6.61E+03    4.33E+03 
RX           1.00E+01    1.00E+01    1.00E+01 
RO           8.13E+04    1.31E+05    8.13E+04 
CBE          1.71E-11    1.33E-11    1.71E-11 
CBC          2.70E-12    1.99E-12    2.70E-12 
CJS          0.00E+00    0.00E+00    0.00E+00 
BETAAC       1.53E+02    1.51E+02    1.53E+02 
CBX/CBX2     0.00E+00    0.00E+00    0.00E+00 
FT/FT2       2.84E+08    2.38E+08    2.84E+08 



          JOB CONCLUDED

**** 10/02/03 17:27:09 ******* PSpice 9.2.3WU (Sep 2002) ****** ID# 1111111111 
 ** Profile: "Example 8.7-AC"  [ C:\Documents and Settings\Adel Sedra\My Documents\SEDRA WORK\SEDRA-PSPICE-CD\CHAPTER 8\chapter 8-exa


 ****     JOB STATISTICS SUMMARY


******************************************************************************



  Total job time (using Solver 1)   =         .32
