
**** 09/15/23 12:42:41 ****** PSpice 17.2.0 (March 2016) ****** ID# 0 ********

 ** Profile: "SCHEMATIC1-HW1_1_AC"  [ g:\andy\23me\hw1\hw1\hw1\hw1-pspicefiles\schematic1\hw1_1_ac.sim ] 


 ****     CIRCUIT DESCRIPTION


******************************************************************************




** Creating circuit file "HW1_1_AC.cir" 
** WARNING: THIS AUTOMATICALLY GENERATED FILE MAY BE OVERWRITTEN BY SUBSEQUENT SIMULATIONS

*Libraries: 
* Profile Libraries :
* Local Libraries :
.LIB "C:/Program Files (x86)/OUP/sedra_lib.lib" 
* From [PSPICE NETLIST] section of C:\cadence\Cadence\SPB_Data\cdssetup\OrCAD_PSpice\17.2.0\PSpice.ini file:
.lib "nom.lib" 

*Analysis directives: 
.AC DEC 10 1k 1G
.OPTIONS ADVCONV
.PROBE64 V(alias(*)) I(alias(*)) W(alias(*)) D(alias(*)) NOISE(alias(*)) 
.INC "..\SCHEMATIC1.net" 



**** INCLUDING SCHEMATIC1.net ****
* source HW1
V_VDD         N00700 0 3.3Vdc
R_RS         0 N00725  150k TC=0,0 
M_M1         N00411 N01229 N00662 N00662 PMOS0P5  
+ L=0.5u  
+ W=12u  
+ AD=1.72E-12  
+ AS=1.72E-12  
+ PD=5.25e-6  
+ PS=5.25E-6      
+ M=1
M_M2         VO N01180 N00662 N00662 PMOS0P5  
+ L=0.5u  
+ W=12u  
+ AD=1.72E-12  
+ AS=1.72E-12  
+ PD=5.25e-6  
+ PS=5.25E-6      
+ M=1
M_M6         N00725 N00725 N00700 N00700 PMOS0P5  
+ L=0.5u  
+ W=0.75u  
+ AD=1.72E-12  
+ AS=1.72E-12  
+ PD=5.25e-6  
+ PS=5.25E-6      
+ M=1
M_M5         N00662 N00725 N00700 N00700 PMOS0P5  
+ L=0.5u  
+ W=2.5u  
+ AD=1.72E-12  
+ AS=1.72E-12  
+ PD=5.25e-6  
+ PS=5.25E-6      
+ M=1
M_M3         N00411 N00411 0 N00571 NMOS0P5  
+ L=0.5u  
+ W=5u  
+ AD=1.72E-12  
+ AS=1.72E-12  
+ PD=5.25E-6  
+ PS=5.25E-6      
+ M=1
M_M4         VO N00411 0 N00580 NMOS0P5  
+ L=0.5u  
+ W=5u  
+ AD=1.72E-12  
+ AS=1.72E-12  
+ PD=5.25E-6  
+ PS=5.25E-6      
+ M=1
C_CL         0 VO  1p  TC=0,0 
V_Vin+         N01229 0 DC 1.65Vdc AC 0.5749020786Vac 
V_Vin-         N01180 0 DC 1.65Vdc AC -0.5749020786Vac 

**** RESUMING HW1_1_AC.cir ****
.END

WARNING(ORPSIM-15676): LAMBDA for MOSFET model PMOS0P5 is unusually large and might cause non-convergence

**** 09/15/23 12:42:41 ****** PSpice 17.2.0 (March 2016) ****** ID# 0 ********

 ** Profile: "SCHEMATIC1-HW1_1_AC"  [ g:\andy\23me\hw1\hw1\hw1\hw1-pspicefiles\schematic1\hw1_1_ac.sim ] 


 ****     MOSFET MODEL PARAMETERS


******************************************************************************




               PMOS0P5         NMOS0P5         
               PMOS            NMOS            
       LEVEL    1               1            
           L  100.000000E-06  100.000000E-06 
           W  100.000000E-06  100.000000E-06 
          LD   90.000000E-09   80.000000E-09 
         VTO    -.8              .7          
          KP   72.697760E-06  247.172400E-06 
       GAMMA     .45             .5          
         PHI     .8              .8          
      LAMBDA     .2              .1          
          IS   10.000000E-15   10.000000E-15 
          JS    5.000000E-09   10.000000E-09 
          PB     .9              .9          
        PBSW     .9              .9          
          CJ  930.000000E-06  570.000000E-06 
        CJSW  170.000000E-12  120.000000E-12 
        MJSW     .35             .4          
        CGSO  350.000000E-12  400.000000E-12 
        CGDO  350.000000E-12  400.000000E-12 
        CGBO  380.000000E-12  380.000000E-12 
         TOX    9.500000E-09    9.500000E-09 
          XJ    0               0            
          UO  200             680            
       UCRIT   10.000000E+03   10.000000E+03 
      DIOMOD    1               1            
         VFB    0               0            
        LETA    0               0            
        WETA    0               0            
          U0    0               0            
        TEMP    0               0            
         VDD    5               5            
       XPART    0               0            


WARNING(ORPSIM-15676): LAMBDA for MOSFET model PMOS0P5 is unusually large and might cause non-convergence

**** 09/15/23 12:42:41 ****** PSpice 17.2.0 (March 2016) ****** ID# 0 ********

 ** Profile: "SCHEMATIC1-HW1_1_AC"  [ g:\andy\23me\hw1\hw1\hw1\hw1-pspicefiles\schematic1\hw1_1_ac.sim ] 


 ****     SMALL SIGNAL BIAS SOLUTION       TEMPERATURE =   27.000 DEG C


******************************************************************************



 NODE   VOLTAGE     NODE   VOLTAGE     NODE   VOLTAGE     NODE   VOLTAGE


(   VO)     .7091  (N00411)     .7091 (N00571)     .3484 (N00580)     .3484     

(N00662)    2.5587 (N00700)    3.3000 (N00725)    2.1322 (N01180)    1.6500     

(N01229)    1.6500 




    VOLTAGE SOURCE CURRENTS
    NAME         CURRENT

    V_VDD       -5.832E-05
    V_Vin+       0.000E+00
    V_Vin-       0.000E+00

    TOTAL POWER DISSIPATION   1.92E-04  WATTS



          JOB CONCLUDED

**** 09/15/23 12:42:41 ****** PSpice 17.2.0 (March 2016) ****** ID# 0 ********

 ** Profile: "SCHEMATIC1-HW1_1_AC"  [ g:\andy\23me\hw1\hw1\hw1\hw1-pspicefiles\schematic1\hw1_1_ac.sim ] 


 ****     JOB STATISTICS SUMMARY


******************************************************************************



  Total job time (using Solver 1)   =         .02
