
**** 10/01/03 21:38:26 ******* PSpice 9.2.3WU (Sep 2002) ****** ID# 1111111111 
 ** Profile: "Example 13.1-transient"  [ C:\Documents and Settings\Adel Sedra\My Documents\SEDRA WORK\SEDRA-PSPICE-CD\CHAPTER 13\chap


 ****     CIRCUIT DESCRIPTION


******************************************************************************




** Creating circuit file "chapter 13-Example 13.1-transient.sim.cir" 
** WARNING: THIS AUTOMATICALLY GENERATED FILE MAY BE OVERWRITTEN BY SUBSEQUENT SIMULATIONS

*Libraries: 
* Local Libraries :
.LIB "..\sedra_lib.lib" 
* From [PSPICE NETLIST] section of e:\cadence\tools\PSpice\PSpice.ini file:
.lib "nom.lib" 

*Analysis directives: 
.TRAN  0 20m 0 20u 
.FOUR 986.6 10 V([OUT]) 
.STEP PARAM R1a LIST 15K 18K 25K  
.PROBE V(alias(*)) I(alias(*)) W(alias(*)) D(alias(*)) NOISE(alias(*)) 
.INC ".\chapter 13-Example 13.1.net" 



**** INCLUDING "chapter 13-Example 13.1.net" ****
* source CHAPTER 13
C_C4         N00375 N00279  {C4} IC=0 
X_U1         N00279 N00504 VCC VEE A uA741
R_R1b         N00504 OUT  {R1b}  
C_C3         0 N00279  {C3} IC=0 
R_R4         N00375 A  {R4}  
D_D1         A OUT D1N4148 
R_R3         0 N00279  {R3}  
V_VCC         VCC 0 {VCC}
R_R2         OUT A  {R2}  
V_VEE         VEE 0 {VEE}
R_R1a         0 N00504  {R1a}  
D_D2         OUT A D1N4148 
.PARAM  C3=16n VCC=15 VEE=-15 C4=16n R2=10K R3=10K R4=10K R1a=18K R1b={50K-
+ {R1a}}

**** RESUMING "chapter 13-Example 13.1-transient.sim.cir" ****
.END

**** 10/01/03 21:38:26 ******* PSpice 9.2.3WU (Sep 2002) ****** ID# 1111111111 
 ** Profile: "Example 13.1-transient"  [ C:\Documents and Settings\Adel Sedra\My Documents\SEDRA WORK\SEDRA-PSPICE-CD\CHAPTER 13\chap


 ****     Diode MODEL PARAMETERS


******************************************************************************




               D1N4148         X_U1.dx         X_U1.dy         
          IS    2.682000E-09  800.000000E-18  800.000000E-18 
           N    1.836                                        
         ISR    1.565000E-09                                 
         IKF     .04417                                      
          BV  100                                            
         IBV  100.000000E-06                                 
          RS     .5664          1               1.000000E-03 
          TT   11.540000E-09                                 
         CJO    4.000000E-12                   10.000000E-12 
          VJ     .5                                          
           M     .3333                                       


**** 10/01/03 21:38:26 ******* PSpice 9.2.3WU (Sep 2002) ****** ID# 1111111111 
 ** Profile: "Example 13.1-transient"  [ C:\Documents and Settings\Adel Sedra\My Documents\SEDRA WORK\SEDRA-PSPICE-CD\CHAPTER 13\chap


 ****     BJT MODEL PARAMETERS


******************************************************************************




               X_U1.qx         
               NPN             
          IS  800.000000E-18 
          BF   93.75         
          NF    1            
          BR    1            
          NR    1            
          CN    2.42         
           D     .87         


**** 10/01/03 21:38:26 ******* PSpice 9.2.3WU (Sep 2002) ****** ID# 1111111111 
 ** Profile: "Example 13.1-transient"  [ C:\Documents and Settings\Adel Sedra\My Documents\SEDRA WORK\SEDRA-PSPICE-CD\CHAPTER 13\chap


 ****     INITIAL TRANSIENT SOLUTION       TEMPERATURE =   27.000 DEG C

 ****     CURRENT STEP                     PARAM R1A =   15.0000E+03


******************************************************************************



 NODE   VOLTAGE     NODE   VOLTAGE     NODE   VOLTAGE     NODE   VOLTAGE


(    A)     .0037  (  OUT)     .0029  (  VCC)   15.0000  (  VEE)  -15.0000      

(N00279) 573.5E-12 (N00375) 1.306E-09 (N00504) 19.23E-06 (X_U1.6)-352.1E-09     

(X_U1.7)     .0037 (X_U1.8)     .0037 (X_U1.9)    0.0000 (X_U1.10)    -.6077    

(X_U1.11)   14.9600                   (X_U1.12)   14.9600                       

(X_U1.13)    -.5938                   (X_U1.14)    -.5938                       

(X_U1.53)   14.0000                   (X_U1.54)  -14.0000                       

(X_U1.90) 447.5E-06                   (X_U1.91)   40.0000                       

(X_U1.92)  -40.0000                   (X_U1.99)    0.0000                   




    VOLTAGE SOURCE CURRENTS
    NAME         CURRENT

    V_VCC       -1.667E-03
    V_VEE        1.667E-03
    X_U1.vb     -3.521E-12
    X_U1.vc      1.400E-11
    X_U1.ve      1.456E-11
    X_U1.vlim    4.475E-07
    X_U1.vlp    -4.000E-11
    X_U1.vln    -4.000E-11

    TOTAL POWER DISSIPATION   5.00E-02  WATTS


**** 10/01/03 21:38:26 ******* PSpice 9.2.3WU (Sep 2002) ****** ID# 1111111111 
 ** Profile: "Example 13.1-transient"  [ C:\Documents and Settings\Adel Sedra\My Documents\SEDRA WORK\SEDRA-PSPICE-CD\CHAPTER 13\chap


 ****     FOURIER ANALYSIS                 TEMPERATURE =   27.000 DEG C

 ****     CURRENT STEP                     PARAM R1A =   15.0000E+03


******************************************************************************



FOURIER COMPONENTS OF TRANSIENT RESPONSE V(OUT)



 DC COMPONENT =   7.179656E-01

 HARMONIC   FREQUENCY    FOURIER    NORMALIZED    PHASE        NORMALIZED
    NO         (HZ)     COMPONENT    COMPONENT    (DEG)       PHASE (DEG)

     1     9.866E+02    1.652E+01    1.000E+00   -1.492E+02    0.000E+00
     2     1.973E+03    1.032E+00    6.248E-02    1.613E+02    4.597E+02
     3     2.960E+03    2.358E+00    1.427E-01   -1.046E+02    3.430E+02
     4     3.946E+03    3.362E-01    2.035E-02   -1.615E+02    4.354E+02
     5     4.933E+03    8.600E-01    5.206E-02   -1.338E+02    6.123E+02
     6     5.920E+03    3.134E-01    1.897E-02   -1.743E+02    7.211E+02
     7     6.906E+03    4.890E-01    2.960E-02   -1.220E+02    9.226E+02
     8     7.893E+03    1.885E-01    1.141E-02   -1.470E+02    1.047E+03
     9     8.879E+03    3.441E-01    2.083E-02   -1.392E+02    1.204E+03
    10     9.866E+03    1.810E-01    1.095E-02   -1.592E+02    1.333E+03


     TOTAL HARMONIC DISTORTION =   1.712363E+01 PERCENT

**** 10/01/03 21:38:26 ******* PSpice 9.2.3WU (Sep 2002) ****** ID# 1111111111 
 ** Profile: "Example 13.1-transient"  [ C:\Documents and Settings\Adel Sedra\My Documents\SEDRA WORK\SEDRA-PSPICE-CD\CHAPTER 13\chap


 ****     INITIAL TRANSIENT SOLUTION       TEMPERATURE =   27.000 DEG C

 ****     CURRENT STEP                     PARAM R1A =   18.0000E+03


******************************************************************************



 NODE   VOLTAGE     NODE   VOLTAGE     NODE   VOLTAGE     NODE   VOLTAGE


(    A)     .0034  (  OUT)     .0026  (  VCC)   15.0000  (  VEE)  -15.0000      

(N00279) 523.1E-12 (N00375) 1.206E-09 (N00504) 19.23E-06 (X_U1.6)-328.0E-09     

(X_U1.7)     .0034 (X_U1.8)     .0034 (X_U1.9)    0.0000 (X_U1.10)    -.6077    

(X_U1.11)   14.9600                   (X_U1.12)   14.9600                       

(X_U1.13)    -.5938                   (X_U1.14)    -.5938                       

(X_U1.53)   14.0000                   (X_U1.54)  -14.0000                       

(X_U1.90) 422.1E-06                   (X_U1.91)   40.0000                       

(X_U1.92)  -40.0000                   (X_U1.99)    0.0000                   




    VOLTAGE SOURCE CURRENTS
    NAME         CURRENT

    V_VCC       -1.667E-03
    V_VEE        1.667E-03
    X_U1.vb     -3.280E-12
    X_U1.vc      1.400E-11
    X_U1.ve      1.433E-11
    X_U1.vlim    4.221E-07
    X_U1.vlp    -4.000E-11
    X_U1.vln    -4.000E-11

    TOTAL POWER DISSIPATION   5.00E-02  WATTS


**** 10/01/03 21:38:26 ******* PSpice 9.2.3WU (Sep 2002) ****** ID# 1111111111 
 ** Profile: "Example 13.1-transient"  [ C:\Documents and Settings\Adel Sedra\My Documents\SEDRA WORK\SEDRA-PSPICE-CD\CHAPTER 13\chap


 ****     FOURIER ANALYSIS                 TEMPERATURE =   27.000 DEG C

 ****     CURRENT STEP                     PARAM R1A =   18.0000E+03


******************************************************************************



FOURIER COMPONENTS OF TRANSIENT RESPONSE V(OUT)



 DC COMPONENT =  -8.008180E-04

 HARMONIC   FREQUENCY    FOURIER    NORMALIZED    PHASE        NORMALIZED
    NO         (HZ)     COMPONENT    COMPONENT    (DEG)       PHASE (DEG)

     1     9.866E+02    7.389E+00    1.000E+00   -1.032E+02    0.000E+00
     2     1.973E+03    2.553E-03    3.455E-04   -1.656E+02    4.076E+01
     3     2.960E+03    1.402E-01    1.898E-02   -4.192E+01    2.676E+02
     4     3.946E+03    5.040E-03    6.821E-04   -1.057E+02    3.069E+02
     5     4.933E+03    2.648E-02    3.584E-03    1.105E+02    6.263E+02
     6     5.920E+03    3.995E-03    5.407E-04   -8.228E+01    5.367E+02
     7     6.906E+03    1.227E-02    1.660E-03   -1.021E+02    6.200E+02
     8     7.893E+03    2.997E-03    4.056E-04   -1.043E+02    7.210E+02
     9     8.879E+03    2.069E-03    2.801E-04   -5.322E+01    8.753E+02
    10     9.866E+03    3.890E-03    5.264E-04   -1.060E+02    9.256E+02


     TOTAL HARMONIC DISTORTION =   1.942195E+00 PERCENT

**** 10/01/03 21:38:26 ******* PSpice 9.2.3WU (Sep 2002) ****** ID# 1111111111 
 ** Profile: "Example 13.1-transient"  [ C:\Documents and Settings\Adel Sedra\My Documents\SEDRA WORK\SEDRA-PSPICE-CD\CHAPTER 13\chap


 ****     INITIAL TRANSIENT SOLUTION       TEMPERATURE =   27.000 DEG C

 ****     CURRENT STEP                     PARAM R1A =   25.0000E+03


******************************************************************************



 NODE   VOLTAGE     NODE   VOLTAGE     NODE   VOLTAGE     NODE   VOLTAGE


(    A)     .0028  (  OUT)     .0020  (  VCC)   15.0000  (  VEE)  -15.0000      

(N00279) 407.8E-12 (N00375) 975.1E-12 (N00504) 19.24E-06 (X_U1.6)-272.8E-09     

(X_U1.7)     .0029 (X_U1.8)     .0029 (X_U1.9)    0.0000 (X_U1.10)    -.6077    

(X_U1.11)   14.9600                   (X_U1.12)   14.9600                       

(X_U1.13)    -.5938                   (X_U1.14)    -.5938                       

(X_U1.53)   14.0000                   (X_U1.54)  -14.0000                       

(X_U1.90) 364.2E-06                   (X_U1.91)   40.0000                       

(X_U1.92)  -40.0000                   (X_U1.99)    0.0000                   




    VOLTAGE SOURCE CURRENTS
    NAME         CURRENT

    V_VCC       -1.667E-03
    V_VEE        1.667E-03
    X_U1.vb     -2.728E-12
    X_U1.vc      1.400E-11
    X_U1.ve      1.433E-11
    X_U1.vlim    3.642E-07
    X_U1.vlp    -4.000E-11
    X_U1.vln    -4.000E-11

    TOTAL POWER DISSIPATION   5.00E-02  WATTS


**** 10/01/03 21:38:26 ******* PSpice 9.2.3WU (Sep 2002) ****** ID# 1111111111 
 ** Profile: "Example 13.1-transient"  [ C:\Documents and Settings\Adel Sedra\My Documents\SEDRA WORK\SEDRA-PSPICE-CD\CHAPTER 13\chap


 ****     FOURIER ANALYSIS                 TEMPERATURE =   27.000 DEG C

 ****     CURRENT STEP                     PARAM R1A =   25.0000E+03


******************************************************************************



FOURIER COMPONENTS OF TRANSIENT RESPONSE V(OUT)



 DC COMPONENT =   4.381217E-04

 HARMONIC   FREQUENCY    FOURIER    NORMALIZED    PHASE        NORMALIZED
    NO         (HZ)     COMPONENT    COMPONENT    (DEG)       PHASE (DEG)

     1     9.866E+02    1.678E-11    1.000E+00   -2.603E+01    0.000E+00
     2     1.973E+03    7.186E-12    4.283E-01   -7.744E+01   -2.538E+01
     3     2.960E+03    5.707E-12    3.402E-01   -9.309E+01   -1.499E+01
     4     3.946E+03    4.484E-12    2.672E-01   -4.489E+01    5.925E+01
     5     4.933E+03    4.356E-12    2.596E-01   -8.479E+01    4.538E+01
     6     5.920E+03    4.713E-12    2.809E-01   -3.933E+01    1.169E+02
     7     6.906E+03    5.210E-12    3.105E-01   -4.922E+01    1.330E+02
     8     7.893E+03    5.720E-12    3.409E-01   -6.166E+01    1.466E+02
     9     8.879E+03    5.135E-12    3.060E-01   -4.370E+01    1.906E+02
    10     9.866E+03    5.371E-12    3.201E-01   -6.476E+01    1.956E+02


     TOTAL HARMONIC DISTORTION =   9.620809E+01 PERCENT


          JOB CONCLUDED

**** 10/01/03 21:38:26 ******* PSpice 9.2.3WU (Sep 2002) ****** ID# 1111111111 
 ** Profile: "Example 13.1-transient"  [ C:\Documents and Settings\Adel Sedra\My Documents\SEDRA WORK\SEDRA-PSPICE-CD\CHAPTER 13\chap


 ****     JOB STATISTICS SUMMARY

 ****     CURRENT STEP                     PARAM R1A =   25.0000E+03


******************************************************************************



  Total job time (using Solver 1)   =        1.42
