
**** 09/25/03 17:20:19 ******* PSpice 9.2.3WU (Sep 2002) ****** ID# 1111111111 
 ** Profile: "CMOS Opamp-bias"  [ C:\Documents and Settings\Adel Sedra\My Documents\SEDRA WORK\SEDRA-PSPICE-CD\CHAPTER 9\chapter 9-CM


 ****     CIRCUIT DESCRIPTION


******************************************************************************




** Creating circuit file "chapter 9-CMOS Opamp-bias.sim.cir" 
** WARNING: THIS AUTOMATICALLY GENERATED FILE MAY BE OVERWRITTEN BY SUBSEQUENT SIMULATIONS

*Libraries: 
* Local Libraries :
.LIB "..\sedra_lib.lib" 
* From [PSPICE NETLIST] section of e:\cadence\tools\PSpice\PSpice.ini file:
.lib "nom.lib" 

*Analysis directives: 
.OP
.PROBE V(alias(*)) I(alias(*)) W(alias(*)) D(alias(*)) NOISE(alias(*)) 
.INC ".\chapter 9-CMOS Opamp.net" 



**** INCLUDING "chapter 9-CMOS Opamp.net" ****
* source CHAPTER 9
C_CL         0 OUT  {Cload}  
M_M1         N00885 INN N00766 N00766 PMOS0P5  
+ L=0.6u  
+ W=1.25u  
+ AD=1.72E-12  
+ AS=1.72E-12  
+ PD=5.25e-6  
+ PS=5.25E-6      
+ M={M1}
V_Vd         D 0 DC 0Vdc AC 1Vac 
M_M7         OUT N01450 VDD VDD PMOS0P5  
+ L=0.6u  
+ W=1.25u  
+ AD=1.72E-12  
+ AS=1.72E-12  
+ PD=5.25e-6  
+ PS=5.25E-6      
+ M={M7}
E_Ep         INP N73627 D 0 0.5
C_Cc         N82248 OUT  {Cc}  
M_M4         A N00885 0 0 NMOS0P5  
+ L=0.6u  
+ W=1.25u  
+ AD=1.72E-12  
+ AS=1.72E-12  
+ PD=5.25E-6  
+ PS=5.25E-6      
+ M={M4}
E_En         N73627 INN D 0 0.5
M_M2         A INP N00766 N00766 PMOS0P5  
+ L=0.6u  
+ W=1.25u  
+ AD=1.72E-12  
+ AS=1.72E-12  
+ PD=5.25e-6  
+ PS=5.25E-6      
+ M={M2}
M_M3         N00885 N00885 0 0 NMOS0P5  
+ L=0.6u  
+ W=1.25u  
+ AD=1.72E-12  
+ AS=1.72E-12  
+ PD=5.25E-6  
+ PS=5.25E-6      
+ M={M3}
R_R         A N82248  {R}  
I_Iref         N01450 0 DC {Iref}  
V_VCM         N73627 0 {VCM}
V_VCC         VDD 0 {VDD}
M_M6         OUT A 0 0 NMOS0P5  
+ L=0.6u  
+ W=1.25u  
+ AD=1.72E-12  
+ AS=1.72E-12  
+ PD=5.25E-6  
+ PS=5.25E-6      
+ M={M6}
M_M5         N00766 N01450 VDD VDD PMOS0P5  
+ L=0.6u  
+ W=1.25u  
+ AD=1.72E-12  
+ AS=1.72E-12  
+ PD=5.25e-6  
+ PS=5.25E-6      
+ M={M5}
M_M8         N01450 N01450 VDD VDD PMOS0P5  
+ L=0.6u  
+ W=1.25u  
+ AD=1.72E-12  
+ AS=1.72E-12  
+ PD=5.25e-6  
+ PS=5.25E-6      
+ M={M8}
.PARAM  VDD=3.3 Cload=1p M1=8 M2=8 Iref=90u M3=2 M4=2 M5=16 VCM=1.65 M6=4 M7=16
+  M8=16 R=1.52K Cc=0.6p

**** RESUMING "chapter 9-CMOS Opamp-bias.sim.cir" ****
.END

WARNING -- LAMBDA for MOSFET model PMOS0P5 is unusually
           large and might cause nonconvergence

**** 09/25/03 17:20:19 ******* PSpice 9.2.3WU (Sep 2002) ****** ID# 1111111111 
 ** Profile: "CMOS Opamp-bias"  [ C:\Documents and Settings\Adel Sedra\My Documents\SEDRA WORK\SEDRA-PSPICE-CD\CHAPTER 9\chapter 9-CM


 ****     MOSFET MODEL PARAMETERS


******************************************************************************




               PMOS0P5         NMOS0P5         
               PMOS            NMOS            
       LEVEL    1               1            
           L  100.000000E-06  100.000000E-06 
           W  100.000000E-06  100.000000E-06 
          LD   90.000000E-09   80.000000E-09 
         VTO    -.8              .7          
          KP   41.801210E-06  167.204900E-06 
       GAMMA     .45             .5          
         PHI     .8              .8          
      LAMBDA     .2             1.000000E-03 
          IS   10.000000E-15   10.000000E-15 
          JS    5.000000E-09   10.000000E-09 
          PB     .9              .9          
        PBSW     .9              .9          
          CJ  930.000000E-06  570.000000E-06 
        CJSW  170.000000E-12  120.000000E-12 
        MJSW     .35             .4          
        CGSO  350.000000E-12  400.000000E-12 
        CGDO  350.000000E-12  400.000000E-12 
        CGBO  380.000000E-12  380.000000E-12 
         TOX    9.500000E-09    9.500000E-09 
          XJ    0               0            
          UO  115             460            
       UCRIT   10.000000E+03   10.000000E+03 
      DIOMOD    1               1            
         VFB    0               0            
        LETA    0               0            
        WETA    0               0            
          U0    0               0            
        TEMP    0               0            
         VDD    0               0            
       XPART    0               0            


WARNING -- LAMBDA for MOSFET model PMOS0P5 is unusually
           large and might cause nonconvergence

**** 09/25/03 17:20:19 ******* PSpice 9.2.3WU (Sep 2002) ****** ID# 1111111111 
 ** Profile: "CMOS Opamp-bias"  [ C:\Documents and Settings\Adel Sedra\My Documents\SEDRA WORK\SEDRA-PSPICE-CD\CHAPTER 9\chapter 9-CM


 ****     SMALL SIGNAL BIAS SOLUTION       TEMPERATURE =   27.000 DEG C


******************************************************************************



 NODE   VOLTAGE     NODE   VOLTAGE     NODE   VOLTAGE     NODE   VOLTAGE


(    A)     .9954  (    D)    0.0000  (  INN)    1.6500  (  INP)    1.6500      

(  OUT)    2.6899  (  VDD)    3.3000  (N00766)    2.6994 (N00885)     .9954     

(N01450)    2.2271 (N73627)    1.6500 (N82248)     .9954 




    VOLTAGE SOURCE CURRENTS
    NAME         CURRENT

    V_Vd         0.000E+00
    V_VCM        0.000E+00
    V_VCC       -2.561E-04

    TOTAL POWER DISSIPATION   8.45E-04  WATTS


**** 09/25/03 17:20:19 ******* PSpice 9.2.3WU (Sep 2002) ****** ID# 1111111111 
 ** Profile: "CMOS Opamp-bias"  [ C:\Documents and Settings\Adel Sedra\My Documents\SEDRA WORK\SEDRA-PSPICE-CD\CHAPTER 9\chapter 9-CM


 ****     OPERATING POINT INFORMATION      TEMPERATURE =   27.000 DEG C


******************************************************************************






**** VOLTAGE-CONTROLLED VOLTAGE SOURCES


NAME         E_Ep        E_En      
V-SOURCE     0.000E+00   0.000E+00
I-SOURCE     0.000E+00   0.000E+00


**** MOSFETS


NAME         M_M1        M_M7        M_M4        M_M2        M_M3      
MODEL        PMOS0P5     PMOS0P5     NMOS0P5     PMOS0P5     NMOS0P5   
ID          -4.15E-05   -8.31E-05    4.15E-05   -4.15E-05    4.15E-05 
VGS         -1.05E+00   -1.07E+00    9.95E-01   -1.05E+00    9.95E-01 
VDS         -1.70E+00   -6.10E-01    9.95E-01   -1.70E+00    9.95E-01 
VBS          0.00E+00    0.00E+00    0.00E+00    0.00E+00    0.00E+00 
VTH         -8.00E-01   -8.00E-01    7.00E-01   -8.00E-01    7.00E-01 
VDSAT       -2.49E-01   -2.73E-01    2.95E-01   -2.49E-01    2.95E-01 
Lin0/Sat1   -1.00E+00   -1.00E+00   -1.00E+00   -1.00E+00   -1.00E+00 
if          -1.00E+00   -1.00E+00   -1.00E+00   -1.00E+00   -1.00E+00 
ir          -1.00E+00   -1.00E+00   -1.00E+00   -1.00E+00   -1.00E+00 
TAU         -1.00E+00   -1.00E+00   -1.00E+00   -1.00E+00   -1.00E+00 
GM           3.33E-04    6.09E-04    2.81E-04    3.33E-04    2.81E-04 
GDS          6.19E-06    1.48E-05    4.15E-08    6.19E-06    4.15E-08 
GMB          8.37E-05    1.53E-04    7.85E-05    8.37E-05    7.85E-05 
CBD          1.24E-14    3.17E-14    2.29E-15    1.24E-14    2.29E-15 
CBS          1.99E-14    3.99E-14    3.22E-15    1.99E-14    3.22E-15 
CGSOV        3.50E-15    7.00E-15    1.00E-15    3.50E-15    1.00E-15 
CGDOV        3.50E-15    7.00E-15    1.00E-15    3.50E-15    1.00E-15 
CGBOV        1.60E-16    1.60E-16    1.67E-16    1.60E-16    1.67E-16 
CGS          1.02E-14    2.04E-14    2.67E-15    1.02E-14    2.67E-15 
CGD          0.00E+00    0.00E+00    0.00E+00    0.00E+00    0.00E+00 
CGB          0.00E+00    0.00E+00    0.00E+00    0.00E+00    0.00E+00 

NAME         M_M6        M_M5        M_M8      
MODEL        NMOS0P5     PMOS0P5     PMOS0P5   
ID           8.31E-05   -8.30E-05   -9.00E-05 
VGS          9.95E-01   -1.07E+00   -1.07E+00 
VDS          2.69E+00   -6.01E-01   -1.07E+00 
VBS          0.00E+00    0.00E+00    0.00E+00 
VTH          7.00E-01   -8.00E-01   -8.00E-01 
VDSAT        2.95E-01   -2.73E-01   -2.73E-01 
Lin0/Sat1   -1.00E+00   -1.00E+00   -1.00E+00 
if          -1.00E+00   -1.00E+00   -1.00E+00 
ir          -1.00E+00   -1.00E+00   -1.00E+00 
TAU         -1.00E+00   -1.00E+00   -1.00E+00 
GM           5.63E-04    6.08E-04    6.60E-04 
GDS          8.29E-08    1.48E-05    1.48E-05 
GMB          1.57E-04    1.53E-04    1.66E-04 
CBD          3.41E-15    3.18E-14    2.81E-14 
CBS          6.44E-15    3.99E-14    3.99E-14 
CGSOV        2.00E-15    7.00E-15    7.00E-15 
CGDOV        2.00E-15    7.00E-15    7.00E-15 
CGBOV        1.67E-16    1.60E-16    1.60E-16 
CGS          5.33E-15    2.04E-14    2.04E-14 
CGD          0.00E+00    0.00E+00    0.00E+00 
CGB          0.00E+00    0.00E+00    0.00E+00 

          JOB CONCLUDED

**** 09/25/03 17:20:19 ******* PSpice 9.2.3WU (Sep 2002) ****** ID# 1111111111 
 ** Profile: "CMOS Opamp-bias"  [ C:\Documents and Settings\Adel Sedra\My Documents\SEDRA WORK\SEDRA-PSPICE-CD\CHAPTER 9\chapter 9-CM


 ****     JOB STATISTICS SUMMARY


******************************************************************************



  Total job time (using Solver 1)   =         .11
