
**** 10/09/09 18:07:26 ********* PSpice 9.2 (Mar 2000) ******** ID# 0 ********

 ** Profile: "Example PS.6.2 Rout-AC"  [ C:\Documents and Settings\Administrator\My Documents\SPICE Examples Converted\Appendix B-PS.


 ****     CIRCUIT DESCRIPTION


******************************************************************************




** Creating circuit file "appendix b-ps.6-example ps.6.2 rout-ac.sim.cir" 
** WARNING: THIS AUTOMATICALLY GENERATED FILE MAY BE OVERWRITTEN BY SUBSEQUENT SIMULATIONS

*Libraries: 
* Local Libraries :
.LIB "..\sedra_lib.lib" 
* From [PSPICE NETLIST] section of C:\Program Files\Orcad\PSpice\PSpice.ini file:
.lib "nom.lib" 

*Analysis directives: 
.AC DEC 25 0.1 100E6
.PROBE V(alias(*)) I(alias(*)) W(alias(*)) D(alias(*)) NOISE(alias(*)) 
.INC ".\Appendix B-PS.6-Example PS.6.2 Rout.net" 



**** INCLUDING "Appendix B-PS.6-Example PS.6.2 Rout.net" ****
* source APPENDIX B-PS.6
R_R7         0 N108871  {RB}  
R_R5         0 N109037  {Rsig}  
V_V6         VDD 0 {VDD}
R_R8         VSS N109043  {RE1}  
Q_Q2         N109109 N108871 N109043 Q2N3904
C_C3         N109295 N109043  {CB}  
V_V7         VSS 0 {VSS}
R_R9         0 N109295  {Re2}  
R_R4         N109109 VDD  {RC}  
I_Iout         OUT 0 DC 0Adc AC 1Aac 
C_C1         N109109 OUT  {CCO}  
C_C2         N109037 N108871  {CCI}  
R_R6         0 OUT  {RL}  
.PARAM  RB=340K VDD=5 VSS=-5 RC=10K CCI=10u CCO=10u RL=10K RE1=6K RE2=1
+  Rsig=10K CB=10u

**** RESUMING "appendix b-ps.6-example ps.6.2 rout-ac.sim.cir" ****
.END

**** 10/09/09 18:07:26 ********* PSpice 9.2 (Mar 2000) ******** ID# 0 ********

 ** Profile: "Example PS.6.2 Rout-AC"  [ C:\Documents and Settings\Administrator\My Documents\SPICE Examples Converted\Appendix B-PS.


 ****     BJT MODEL PARAMETERS


******************************************************************************




               Q2N3904         
               NPN             
          IS    6.734000E-15 
          BF  416.4          
          NF    1            
         VAF   74.03         
         IKF     .06678      
         ISE    6.734000E-15 
          NE    1.259        
          BR     .7371       
          NR    1            
          RB   10            
          RC    1            
         CJE    4.493000E-12 
         MJE     .2593       
         CJC    3.638000E-12 
         MJC     .3085       
          TF  301.200000E-12 
         XTF    2            
         VTF    4            
         ITF     .4          
          TR  239.500000E-09 
         XTB    1.5          
          CN    2.42         
           D     .87         


**** 10/09/09 18:07:26 ********* PSpice 9.2 (Mar 2000) ******** ID# 0 ********

 ** Profile: "Example PS.6.2 Rout-AC"  [ C:\Documents and Settings\Administrator\My Documents\SPICE Examples Converted\Appendix B-PS.


 ****     SMALL SIGNAL BIAS SOLUTION       TEMPERATURE =   27.000 DEG C


******************************************************************************



 NODE   VOLTAGE     NODE   VOLTAGE     NODE   VOLTAGE     NODE   VOLTAGE


(  OUT)    0.0000  (  VDD)    5.0000  (  VSS)   -5.0000  (N108871)   -1.3662    

(N109037)    0.0000                   (N109043)   -2.0130                       

(N109109)     .0618                   (N109295)    0.0000                   




    VOLTAGE SOURCE CURRENTS
    NAME         CURRENT

    V_V6        -4.938E-04
    V_V7         4.978E-04

    TOTAL POWER DISSIPATION   4.96E-03  WATTS



          JOB CONCLUDED

          TOTAL JOB TIME             .05
