
**** 10/03/03 15:02:14 ******* PSpice 9.2.3WU (Sep 2002) ****** ID# 1111111111 
 ** Profile: "Example 3.10-transient"  [ C:\Documents and Settings\Adel Sedra\My Documents\SEDRA WORK\SPICE Examples\CHAPTER 3\chapte


 ****     CIRCUIT DESCRIPTION


******************************************************************************




** Creating circuit file "chapter 3-example 3.10-transient.sim.cir" 
** WARNING: THIS AUTOMATICALLY GENERATED FILE MAY BE OVERWRITTEN BY SUBSEQUENT SIMULATIONS

*Libraries: 
* Local Libraries :
.LIB "..\sedra_lib.lib" 
* From [PSPICE NETLIST] section of e:\cadence\tools\PSpice\PSpice.ini file:
.lib "nom.lib" 

*Analysis directives: 
.TRAN  0 200m 0 20u 
.STEP PARAM Rload LIST 150 200 250 500 
.PROBE V(*) I(*) W(*) D(*) NOISE(*) 
.INC ".\chapter 3-Example 3.10.net" 



**** INCLUDING "chapter 3-Example 3.10.net" ****
* source CHAPTER 3
X_TX1         0 2 3 4 5 TX 
R_R4         4 0  {Risolation}  
R_R1         7 6  {R}  
R_R2         2 1  {Rs}  
V_Vsin         1 0  
+SIN 0 169 60 0 0 0
C_C1         4 6  {C}  
D_D1         3 6 D1N4148 
X_Z1         4 7 ZENER_DIODE 
R_R3         7 4  {Rload}  
D_D2         5 6 D1N4148 
.PARAM  Risolation=100E6 Rload=200 R=191 Rs=0.5 C=520u

**** RESUMING "chapter 3-example 3.10-transient.sim.cir" ****
.END

**** 10/03/03 15:02:14 ******* PSpice 9.2.3WU (Sep 2002) ****** ID# 1111111111 
 ** Profile: "Example 3.10-transient"  [ C:\Documents and Settings\Adel Sedra\My Documents\SEDRA WORK\SPICE Examples\CHAPTER 3\chapte


 ****     Diode MODEL PARAMETERS


******************************************************************************




               D1N4148         X_Z1.1mA_diode  
          IS    2.682000E-09  100.000000E-12 
           N    1.836           1.679        
         ISR    1.565000E-09                 
         IKF     .04417                      
          BV  100                            
         IBV  100.000000E-06                 
          RS     .5664                       
          TT   11.540000E-09                 
         CJO    4.000000E-12                 
          VJ     .5                          
           M     .3333                       


               X_Z1.ideal_diode 
          IS  100.000000E-12 
           N     .01         


**** 10/03/03 15:02:14 ******* PSpice 9.2.3WU (Sep 2002) ****** ID# 1111111111 
 ** Profile: "Example 3.10-transient"  [ C:\Documents and Settings\Adel Sedra\My Documents\SEDRA WORK\SPICE Examples\CHAPTER 3\chapte


 ****     INITIAL TRANSIENT SOLUTION       TEMPERATURE =   27.000 DEG C

 ****     CURRENT STEP                     PARAM RLOAD =  150   


******************************************************************************



 NODE   VOLTAGE     NODE   VOLTAGE     NODE   VOLTAGE     NODE   VOLTAGE


(    1)    0.0000  (    2)    0.0000  (    3) 2.559E-18  (    4) 2.559E-18      

(    5) 2.559E-18  (    6) 15.73E-09  (    7) 15.73E-09  (X_Z1.3)-1.049E-09     

(X_Z1.4)    4.9000 




    VOLTAGE SOURCE CURRENTS
    NAME         CURRENT

    V_Vsin       0.000E+00
    X_Z1.Vz0    -1.049E-10

    TOTAL POWER DISSIPATION   5.14E-10  WATTS


**** 10/03/03 15:02:14 ******* PSpice 9.2.3WU (Sep 2002) ****** ID# 1111111111 
 ** Profile: "Example 3.10-transient"  [ C:\Documents and Settings\Adel Sedra\My Documents\SEDRA WORK\SPICE Examples\CHAPTER 3\chapte


 ****     INITIAL TRANSIENT SOLUTION       TEMPERATURE =   27.000 DEG C

 ****     CURRENT STEP                     PARAM RLOAD =  200   


******************************************************************************



 NODE   VOLTAGE     NODE   VOLTAGE     NODE   VOLTAGE     NODE   VOLTAGE


(    1)    0.0000  (    2)    0.0000  (    3) 1.430E-18  (    4) 1.430E-18      

(    5) 1.430E-18  (    6) 20.98E-09  (    7) 20.98E-09  (X_Z1.3)-1.049E-09     

(X_Z1.4)    4.9000 




    VOLTAGE SOURCE CURRENTS
    NAME         CURRENT

    V_Vsin       0.000E+00
    X_Z1.Vz0    -1.049E-10

    TOTAL POWER DISSIPATION   5.14E-10  WATTS


**** 10/03/03 15:02:14 ******* PSpice 9.2.3WU (Sep 2002) ****** ID# 1111111111 
 ** Profile: "Example 3.10-transient"  [ C:\Documents and Settings\Adel Sedra\My Documents\SEDRA WORK\SPICE Examples\CHAPTER 3\chapte


 ****     INITIAL TRANSIENT SOLUTION       TEMPERATURE =   27.000 DEG C

 ****     CURRENT STEP                     PARAM RLOAD =  250   


******************************************************************************



 NODE   VOLTAGE     NODE   VOLTAGE     NODE   VOLTAGE     NODE   VOLTAGE


(    1)    0.0000  (    2)    0.0000  (    3) 3.232E-18  (    4) 3.232E-18      

(    5) 3.232E-18  (    6) 26.22E-09  (    7) 26.22E-09  (X_Z1.3)-1.049E-09     

(X_Z1.4)    4.9000 




    VOLTAGE SOURCE CURRENTS
    NAME         CURRENT

    V_Vsin       0.000E+00
    X_Z1.Vz0    -1.049E-10

    TOTAL POWER DISSIPATION   5.14E-10  WATTS


**** 10/03/03 15:02:14 ******* PSpice 9.2.3WU (Sep 2002) ****** ID# 1111111111 
 ** Profile: "Example 3.10-transient"  [ C:\Documents and Settings\Adel Sedra\My Documents\SEDRA WORK\SPICE Examples\CHAPTER 3\chapte


 ****     INITIAL TRANSIENT SOLUTION       TEMPERATURE =   27.000 DEG C

 ****     CURRENT STEP                     PARAM RLOAD =  500   


******************************************************************************



 NODE   VOLTAGE     NODE   VOLTAGE     NODE   VOLTAGE     NODE   VOLTAGE


(    1)    0.0000  (    2)    0.0000  (    3) 2.150E-18  (    4) 2.150E-18      

(    5) 2.150E-18  (    6) 52.44E-09  (    7) 52.45E-09  (X_Z1.3)-1.049E-09     

(X_Z1.4)    4.9000 




    VOLTAGE SOURCE CURRENTS
    NAME         CURRENT

    V_Vsin       0.000E+00
    X_Z1.Vz0    -1.049E-10

    TOTAL POWER DISSIPATION   5.14E-10  WATTS



          JOB CONCLUDED

**** 10/03/03 15:02:14 ******* PSpice 9.2.3WU (Sep 2002) ****** ID# 1111111111 
 ** Profile: "Example 3.10-transient"  [ C:\Documents and Settings\Adel Sedra\My Documents\SEDRA WORK\SPICE Examples\CHAPTER 3\chapte


 ****     JOB STATISTICS SUMMARY

 ****     CURRENT STEP                     PARAM RLOAD =  500   


******************************************************************************



  Total job time (using Solver 1)   =        8.16
