
**** 09/25/03 16:34:49 ******* PSpice 9.2.3WU (Sep 2002) ****** ID# 1111111111 
 ** Profile: "Class B Output Stage-test"  [ C:\Documents and Settings\Adel Sedra\My Documents\SEDRA WORK\SEDRA-PSPICE-CD\CHAPTER 14\c


 ****     CIRCUIT DESCRIPTION


******************************************************************************




** Creating circuit file "chapter 14-Class B Output Stage-test.sim.cir" 
** WARNING: THIS AUTOMATICALLY GENERATED FILE MAY BE OVERWRITTEN BY SUBSEQUENT SIMULATIONS

*Libraries: 
* Local Libraries :
.LIB "..\sedra_lib.lib" 
* From [PSPICE NETLIST] section of e:\cadence\tools\PSpice\PSpice.ini file:
.lib "nom.lib" 

*Analysis directives: 
.PROBE V(alias(*)) I(alias(*)) W(alias(*)) D(alias(*)) NOISE(alias(*)) 
.INC ".\chapter 14-Class B Output Stage.net" 



**** INCLUDING "chapter 14-Class B Output Stage.net" ****
* source CHAPTER 14
V_Vin         IN 0  
+SIN 0 17.9 1K 0 0 0
V_+VCC         VCC 0 {VCC}
V_-VCC         0 -VCC {VCC}
Q_QP         -VCC IN OUT QMJE253
R_RL         OUT 0  {RL}  
Q_QN         VCC IN OUT QMJE243 
.PARAM  VCC=23 RL=8

**** RESUMING "chapter 14-Class B Output Stage-test.sim.cir" ****
.END

**** 09/25/03 16:34:49 ******* PSpice 9.2.3WU (Sep 2002) ****** ID# 1111111111 
 ** Profile: "Class B Output Stage-test"  [ C:\Documents and Settings\Adel Sedra\My Documents\SEDRA WORK\SEDRA-PSPICE-CD\CHAPTER 14\c


 ****     BJT MODEL PARAMETERS


******************************************************************************




               QMJE253         QMJE243         
               PNP             NPN             
          IS  252.937000E-15    1.273570E-12 
          EG    1.05            1.05         
          BF   54.36          188.792        
          NF    1.01478         1.05658      
         VAF    4.91894        13.5417       
         IKF     .84154          .442678     
         ISE  632.316000E-15  100.000000E-18 
          NE    3.6001          4            
          BR    3.71504         1.73115      
          NR    1.15303         1.04113      
         VAR   49.1894        135.417        
         IKR    4.42705         1.00889      
         ISC  632.316000E-15  100.000000E-18 
          NC    2.93783         2.93725      
          RB  417.673         193.999        
         RBM  992.345000E-06  841.015000E-06 
         IRB    7.102490E-06   52.923500E-06 
          RE   66.825700E-06   94.425700E-06 
          RC     .262081         .216999     
         CJE  157.797000E-12  219.516000E-12 
         VJE     .99             .99         
         MJE     .339209         .39332      
         CJC   65.485600E-12   74.390900E-12 
         VJC     .03286          .4          
         MJC     .208693         .287382     
        XCJC     .8              .799998     
         MJS     .5              .5          
          FC     .532891         .577401     
          TF    2.586030E-09    1.519160E-09 
         XTF    1.5             1.21445      
         VTF     .999999       11.3491       
         ITF    1               9.853400E-03 
          TR  783.777000E-09  776.174000E-09 
         XTB    1.32735         1.16682      
         XTI     .01             .80411      
          CN    2.2             2.42         
           D     .52             .87         


**** 09/25/03 16:34:49 ******* PSpice 9.2.3WU (Sep 2002) ****** ID# 1111111111 
 ** Profile: "Class B Output Stage-test"  [ C:\Documents and Settings\Adel Sedra\My Documents\SEDRA WORK\SEDRA-PSPICE-CD\CHAPTER 14\c


 ****     SMALL SIGNAL BIAS SOLUTION       TEMPERATURE =   27.000 DEG C


******************************************************************************



 NODE   VOLTAGE     NODE   VOLTAGE     NODE   VOLTAGE     NODE   VOLTAGE


(   IN)    0.0000  (  OUT)-531.8E-12  (  VCC)   23.0000  ( -VCC)  -23.0000  




    VOLTAGE SOURCE CURRENTS
    NAME         CURRENT

    V_Vin        7.130E-12
    V_+VCC      -7.952E-11
    V_-VCC      -1.389E-10

    TOTAL POWER DISSIPATION   5.02E-09  WATTS



          JOB CONCLUDED

**** 09/25/03 16:34:49 ******* PSpice 9.2.3WU (Sep 2002) ****** ID# 1111111111 
 ** Profile: "Class B Output Stage-test"  [ C:\Documents and Settings\Adel Sedra\My Documents\SEDRA WORK\SEDRA-PSPICE-CD\CHAPTER 14\c


 ****     JOB STATISTICS SUMMARY


******************************************************************************



  Total job time (using Solver 1)   =         .08
