
**** 09/25/03 16:33:34 ******* PSpice 9.2.3WU (Sep 2002) ****** ID# 1111111111 
 ** Profile: "Wien-Bridge-transient"  [ C:\Documents and Settings\Adel Sedra\My Documents\SEDRA WORK\SEDRA-PSPICE-CD\CHAPTER 13\chapt


 ****     CIRCUIT DESCRIPTION


******************************************************************************




** Creating circuit file "chapter 13-wien-bridge-transient.sim.cir" 
** WARNING: THIS AUTOMATICALLY GENERATED FILE MAY BE OVERWRITTEN BY SUBSEQUENT SIMULATIONS

*Libraries: 
* Local Libraries :
.LIB "..\sedra_lib.lib" 
* From [PSPICE NETLIST] section of e:\cadence\tools\PSpice\PSpice.ini file:
.lib "nom.lib" 

*Analysis directives: 
.TRAN  0 200m 20m 20u 
.FOUR 986.6 10 V([OUT]) 
.PROBE V(alias(*)) I(alias(*)) W(alias(*)) D(alias(*)) NOISE(alias(*)) 
.INC ".\chapter 13-Wien-Bridge.net" 



**** INCLUDING "chapter 13-Wien-Bridge.net" ****
* source CHAPTER 13
C_C4         N00375 N00279  {C4} IC=0 
X_U1         N00279 N00504 VCC VEE A uA741
R_R1b         N00504 OUT  {R1b}  
C_C3         0 N00279  {C3} IC=0 
R_R4         N00375 A  {R4}  
D_D1         A OUT D1N4148 
R_R3         0 N00279  {R3}  
V_VCC         VCC 0 {VCC}
R_R2         OUT A  {R2}  
V_VEE         VEE 0 {VEE}
R_R1a         0 N00504  {R1a}  
D_D2         OUT A D1N4148 
.PARAM  VEE=-15 VCC=15 C3=16n R2=10K C4=16n R3=10K R4=10K R1a=18K R1b={50K-
+ {R1a}}

**** RESUMING "chapter 13-wien-bridge-transient.sim.cir" ****
.END

**** 09/25/03 16:33:34 ******* PSpice 9.2.3WU (Sep 2002) ****** ID# 1111111111 
 ** Profile: "Wien-Bridge-transient"  [ C:\Documents and Settings\Adel Sedra\My Documents\SEDRA WORK\SEDRA-PSPICE-CD\CHAPTER 13\chapt


 ****     Diode MODEL PARAMETERS


******************************************************************************




               D1N4148         X_U1.dx         X_U1.dy         
          IS    2.682000E-09  800.000000E-18  800.000000E-18 
           N    1.836                                        
         ISR    1.565000E-09                                 
         IKF     .04417                                      
          BV  100                                            
         IBV  100.000000E-06                                 
          RS     .5664          1               1.000000E-03 
          TT   11.540000E-09                                 
         CJO    4.000000E-12                   10.000000E-12 
          VJ     .5                                          
           M     .3333                                       


**** 09/25/03 16:33:34 ******* PSpice 9.2.3WU (Sep 2002) ****** ID# 1111111111 
 ** Profile: "Wien-Bridge-transient"  [ C:\Documents and Settings\Adel Sedra\My Documents\SEDRA WORK\SEDRA-PSPICE-CD\CHAPTER 13\chapt


 ****     BJT MODEL PARAMETERS


******************************************************************************




               X_U1.qx         
               NPN             
          IS  800.000000E-18 
          BF   93.75         
          NF    1            
          BR    1            
          NR    1            
          CN    2.42         
           D     .87         


**** 09/25/03 16:33:34 ******* PSpice 9.2.3WU (Sep 2002) ****** ID# 1111111111 
 ** Profile: "Wien-Bridge-transient"  [ C:\Documents and Settings\Adel Sedra\My Documents\SEDRA WORK\SEDRA-PSPICE-CD\CHAPTER 13\chapt


 ****     INITIAL TRANSIENT SOLUTION       TEMPERATURE =   27.000 DEG C


******************************************************************************



 NODE   VOLTAGE     NODE   VOLTAGE     NODE   VOLTAGE     NODE   VOLTAGE


(    A)     .0034  (  OUT)     .0026  (  VCC)   15.0000  (  VEE)  -15.0000      

(N00279) 523.1E-12 (N00375) 1.206E-09 (N00504) 19.23E-06 (X_U1.6)-328.0E-09     

(X_U1.7)     .0034 (X_U1.8)     .0034 (X_U1.9)    0.0000 (X_U1.10)    -.6077    

(X_U1.11)   14.9600                   (X_U1.12)   14.9600                       

(X_U1.13)    -.5938                   (X_U1.14)    -.5938                       

(X_U1.53)   14.0000                   (X_U1.54)  -14.0000                       

(X_U1.90) 422.1E-06                   (X_U1.91)   40.0000                       

(X_U1.92)  -40.0000                   (X_U1.99)    0.0000                   




    VOLTAGE SOURCE CURRENTS
    NAME         CURRENT

    V_VCC       -1.667E-03
    V_VEE        1.667E-03
    X_U1.vb     -3.280E-12
    X_U1.vc      1.400E-11
    X_U1.ve      1.456E-11
    X_U1.vlim    4.221E-07
    X_U1.vlp    -4.000E-11
    X_U1.vln    -4.000E-11

    TOTAL POWER DISSIPATION   5.00E-02  WATTS


**** 09/25/03 16:33:34 ******* PSpice 9.2.3WU (Sep 2002) ****** ID# 1111111111 
 ** Profile: "Wien-Bridge-transient"  [ C:\Documents and Settings\Adel Sedra\My Documents\SEDRA WORK\SEDRA-PSPICE-CD\CHAPTER 13\chapt


 ****     FOURIER ANALYSIS                 TEMPERATURE =   27.000 DEG C


******************************************************************************



FOURIER COMPONENTS OF TRANSIENT RESPONSE V(OUT)



 DC COMPONENT =  -3.204209E-03

 HARMONIC   FREQUENCY    FOURIER    NORMALIZED    PHASE        NORMALIZED
    NO         (HZ)     COMPONENT    COMPONENT    (DEG)       PHASE (DEG)

     1     9.866E+02    7.390E+00    1.000E+00    8.452E+01    0.000E+00
     2     1.973E+03    4.190E-03    5.670E-04    1.196E+02   -4.940E+01
     3     2.960E+03    1.356E-01    1.834E-02    1.606E+02   -9.294E+01
     4     3.946E+03    4.614E-03    6.244E-04    1.137E+02   -2.244E+02
     5     4.933E+03    2.958E-02    4.003E-03   -3.216E+01   -4.548E+02
     6     5.920E+03    4.221E-03    5.712E-04    8.035E+01   -4.268E+02
     7     6.906E+03    1.028E-02    1.390E-03    1.267E+02   -4.650E+02
     8     7.893E+03    3.045E-03    4.120E-04    5.893E+01   -6.173E+02
     9     8.879E+03    1.457E-03    1.972E-04    6.917E+01   -6.915E+02
    10     9.866E+03    1.595E-03    2.159E-04    6.557E+01   -7.797E+02


     TOTAL HARMONIC DISTORTION =   1.886128E+00 PERCENT


          JOB CONCLUDED

**** 09/25/03 16:33:34 ******* PSpice 9.2.3WU (Sep 2002) ****** ID# 1111111111 
 ** Profile: "Wien-Bridge-transient"  [ C:\Documents and Settings\Adel Sedra\My Documents\SEDRA WORK\SEDRA-PSPICE-CD\CHAPTER 13\chapt


 ****     JOB STATISTICS SUMMARY


******************************************************************************



  Total job time (using Solver 1)   =        2.82
