
**** 10/09/09 21:18:59 ********* PSpice 9.2 (Mar 2000) ******** ID# 0 ********

 ** Profile: "Example PS.17.1-transient"  [ C:\Documents and Settings\Administrator\My Documents\SPICE Examples Converted\Appendix B-


 ****     CIRCUIT DESCRIPTION


******************************************************************************




** Creating circuit file "appendix b-ps.17-example ps.17.1-transient.sim.cir" 
** WARNING: THIS AUTOMATICALLY GENERATED FILE MAY BE OVERWRITTEN BY SUBSEQUENT SIMULATIONS

*Libraries: 
* Local Libraries :
.LIB "..\sedra_lib.lib" 
* From [PSPICE NETLIST] section of C:\Program Files\Orcad\PSpice\PSpice.ini file:
.lib "nom.lib" 

*Analysis directives: 
.TRAN  0 200m 20m 20u 
.FOUR 986.6 10 V([OUT]) 
.PROBE V(alias(*)) I(alias(*)) W(alias(*)) D(alias(*)) NOISE(alias(*)) 
.INC ".\Appendix B-PS.17-Example PS.17.1.net" 



**** INCLUDING "Appendix B-PS.17-Example PS.17.1.net" ****
* source APPENDIX B-PS.17
C_C4         N00375 N00279  {C4} IC=0 
X_U1         N00279 N00504 VCC VEE A uA741
R_R1b         N00504 OUT  {R1b}  
C_C3         0 N00279  {C3} IC=0 
R_R4         N00375 A  {R4}  
D_D1         A OUT D1N4148 
R_R3         0 N00279  {R3}  
V_VCC         VCC 0 {VCC}
R_R2         OUT A  {R2}  
V_VEE         VEE 0 {VEE}
R_R1a         0 N00504  {R1a}  
D_D2         OUT A D1N4148 
.PARAM  VEE=-15 VCC=15 C3=16n R2=10K C4=16n R3=10K R4=10K R1a=18K R1b={50K-
+ {R1a}}

**** RESUMING "appendix b-ps.17-example ps.17.1-transient.sim.cir" ****
.END

**** 10/09/09 21:18:59 ********* PSpice 9.2 (Mar 2000) ******** ID# 0 ********

 ** Profile: "Example PS.17.1-transient"  [ C:\Documents and Settings\Administrator\My Documents\SPICE Examples Converted\Appendix B-


 ****     Diode MODEL PARAMETERS


******************************************************************************




               D1N4148         X_U1.dx         X_U1.dy         
          IS    2.682000E-09  800.000000E-18  800.000000E-18 
           N    1.836                                        
         ISR    1.565000E-09                                 
         IKF     .04417                                      
          BV  100                                            
         IBV  100.000000E-06                                 
          RS     .5664          1               1.000000E-03 
          TT   11.540000E-09                                 
         CJO    4.000000E-12                   10.000000E-12 
          VJ     .5                                          
           M     .3333                                       


**** 10/09/09 21:18:59 ********* PSpice 9.2 (Mar 2000) ******** ID# 0 ********

 ** Profile: "Example PS.17.1-transient"  [ C:\Documents and Settings\Administrator\My Documents\SPICE Examples Converted\Appendix B-


 ****     BJT MODEL PARAMETERS


******************************************************************************




               X_U1.qx         
               NPN             
          IS  800.000000E-18 
          BF   93.75         
          NF    1            
          BR    1            
          NR    1            
          CN    2.42         
           D     .87         


**** 10/09/09 21:18:59 ********* PSpice 9.2 (Mar 2000) ******** ID# 0 ********

 ** Profile: "Example PS.17.1-transient"  [ C:\Documents and Settings\Administrator\My Documents\SPICE Examples Converted\Appendix B-


 ****     INITIAL TRANSIENT SOLUTION       TEMPERATURE =   27.000 DEG C


******************************************************************************



 NODE   VOLTAGE     NODE   VOLTAGE     NODE   VOLTAGE     NODE   VOLTAGE


(    A)     .0034  (  OUT)     .0026  (  VCC)   15.0000  (  VEE)  -15.0000      

(N00279) 523.1E-12 (N00375) 1.206E-09 (N00504) 19.23E-06 (X_U1.6)-327.9E-09     

(X_U1.7)     .0034 (X_U1.8)     .0034 (X_U1.9)    0.0000 (X_U1.10)    -.6077    

(X_U1.11)   14.9600                   (X_U1.12)   14.9600                       

(X_U1.13)    -.5938                   (X_U1.14)    -.5938                       

(X_U1.53)   14.0000                   (X_U1.54)  -14.0000                       

(X_U1.90) 422.1E-06                   (X_U1.91)   40.0000                       

(X_U1.92)  -40.0000                   (X_U1.99)    0.0000                   




    VOLTAGE SOURCE CURRENTS
    NAME         CURRENT

    V_VCC       -1.667E-03
    V_VEE        1.667E-03
    X_U1.vb     -3.279E-12
    X_U1.vc      1.400E-11
    X_U1.ve      1.455E-11
    X_U1.vlim    4.221E-07
    X_U1.vlp    -4.000E-11
    X_U1.vln    -4.000E-11

    TOTAL POWER DISSIPATION   5.00E-02  WATTS


**** 10/09/09 21:18:59 ********* PSpice 9.2 (Mar 2000) ******** ID# 0 ********

 ** Profile: "Example PS.17.1-transient"  [ C:\Documents and Settings\Administrator\My Documents\SPICE Examples Converted\Appendix B-


 ****     FOURIER ANALYSIS                 TEMPERATURE =   27.000 DEG C


******************************************************************************



FOURIER COMPONENTS OF TRANSIENT RESPONSE V(OUT)



 DC COMPONENT =  -2.238879E-04

 HARMONIC   FREQUENCY    FOURIER    NORMALIZED    PHASE        NORMALIZED
    NO         (HZ)     COMPONENT    COMPONENT    (DEG)       PHASE (DEG)

     1     9.866E+02    7.378E+00    1.000E+00    8.228E+01    0.000E+00
     2     1.973E+03    2.292E-03    3.107E-04   -1.685E+02   -3.331E+02
     3     2.960E+03    1.416E-01    1.919E-02    1.538E+02   -9.306E+01
     4     3.946E+03    4.244E-03    5.753E-04    2.143E+01   -3.077E+02
     5     4.933E+03    3.068E-02    4.158E-03   -4.987E+01   -4.613E+02
     6     5.920E+03    3.132E-03    4.245E-04    1.334E+02   -3.603E+02
     7     6.906E+03    8.813E-03    1.195E-03    9.882E+01   -4.771E+02
     8     7.893E+03    9.697E-04    1.314E-04   -1.028E+02   -7.610E+02
     9     8.879E+03    8.401E-04    1.139E-04   -1.293E+02   -8.698E+02
    10     9.866E+03    1.450E-03    1.965E-04    2.233E+00   -8.206E+02


     TOTAL HARMONIC DISTORTION =   1.968786E+00 PERCENT


          JOB CONCLUDED

          TOTAL JOB TIME            1.91
