
**** 10/09/09 21:32:32 ********* PSpice 9.2 (Mar 2000) ******** ID# 0 ********

 ** Profile: "Example PS.4.1-transient"  [ C:\Documents and Settings\Administrator\My Documents\SPICE Examples Converted\Appendix B-P


 ****     CIRCUIT DESCRIPTION


******************************************************************************




** Creating circuit file "appendix b-ps.4-example ps.4.1-transient.sim.cir" 
** WARNING: THIS AUTOMATICALLY GENERATED FILE MAY BE OVERWRITTEN BY SUBSEQUENT SIMULATIONS

*Libraries: 
* Local Libraries :
.LIB "..\sedra_lib.lib" 
* From [PSPICE NETLIST] section of C:\Program Files\Orcad\PSpice\PSpice.ini file:
.lib "nom.lib" 

*Analysis directives: 
.TRAN  0 200m 0 20u 
.STEP PARAM Rload LIST 150 200 250 500 
.PROBE V(*) I(*) W(*) D(*) NOISE(*) 
.INC ".\Appendix B-PS.4-Example PS.4.1.net" 



**** INCLUDING "Appendix B-PS.4-Example PS.4.1.net" ****
* source APPENDIX B-PS.4
X_TX1         0 2 3 4 5 TX 
R_R4         4 0  {Risolation}  
R_R1         7 6  {R}  
R_R2         2 1  {Rs}  
V_Vsin         1 0  
+SIN 0 169 60 0 0 0
C_C1         4 6  {C}  
D_D1         3 6 D1N4148 
X_Z1         4 7 ZENER_DIODE 
R_R3         7 4  {Rload}  
D_D2         5 6 D1N4148 
.PARAM  Risolation=100E6 Rload=200 R=191 C=520u Rs=0.5

**** RESUMING "appendix b-ps.4-example ps.4.1-transient.sim.cir" ****
.END

**** 10/09/09 21:32:32 ********* PSpice 9.2 (Mar 2000) ******** ID# 0 ********

 ** Profile: "Example PS.4.1-transient"  [ C:\Documents and Settings\Administrator\My Documents\SPICE Examples Converted\Appendix B-P


 ****     Diode MODEL PARAMETERS


******************************************************************************




               D1N4148         X_Z1.1mA_diode  
          IS    2.682000E-09  100.000000E-12 
           N    1.836           1.679        
         ISR    1.565000E-09                 
         IKF     .04417                      
          BV  100                            
         IBV  100.000000E-06                 
          RS     .5664                       
          TT   11.540000E-09                 
         CJO    4.000000E-12                 
          VJ     .5                          
           M     .3333                       


               X_Z1.ideal_diode 
          IS  100.000000E-12 
           N     .01         


**** 10/09/09 21:32:32 ********* PSpice 9.2 (Mar 2000) ******** ID# 0 ********

 ** Profile: "Example PS.4.1-transient"  [ C:\Documents and Settings\Administrator\My Documents\SPICE Examples Converted\Appendix B-P


 ****     INITIAL TRANSIENT SOLUTION       TEMPERATURE =   27.000 DEG C

 ****     CURRENT STEP                     PARAM RLOAD =  150   


******************************************************************************



 NODE   VOLTAGE     NODE   VOLTAGE     NODE   VOLTAGE     NODE   VOLTAGE


(    1)    0.0000  (    2)    0.0000  (    3)-3.177E-09  (    4)-3.177E-09      

(    5)-3.177E-09  (    6) 12.56E-09  (    7) 12.56E-09  (X_Z1.3)-4.226E-09     

(X_Z1.4)    4.9000 




    VOLTAGE SOURCE CURRENTS
    NAME         CURRENT

    V_Vsin       0.000E+00
    X_Z1.Vz0    -1.049E-10

    TOTAL POWER DISSIPATION   5.14E-10  WATTS


**** 10/09/09 21:32:32 ********* PSpice 9.2 (Mar 2000) ******** ID# 0 ********

 ** Profile: "Example PS.4.1-transient"  [ C:\Documents and Settings\Administrator\My Documents\SPICE Examples Converted\Appendix B-P


 ****     INITIAL TRANSIENT SOLUTION       TEMPERATURE =   27.000 DEG C

 ****     CURRENT STEP                     PARAM RLOAD =  200   


******************************************************************************



 NODE   VOLTAGE     NODE   VOLTAGE     NODE   VOLTAGE     NODE   VOLTAGE


(    1)    0.0000  (    2)    0.0000  (    3)-3.177E-09  (    4)-3.177E-09      

(    5)-3.177E-09  (    6) 17.80E-09  (    7) 17.80E-09  (X_Z1.3)-4.226E-09     

(X_Z1.4)    4.9000 




    VOLTAGE SOURCE CURRENTS
    NAME         CURRENT

    V_Vsin       0.000E+00
    X_Z1.Vz0    -1.049E-10

    TOTAL POWER DISSIPATION   5.14E-10  WATTS


**** 10/09/09 21:32:32 ********* PSpice 9.2 (Mar 2000) ******** ID# 0 ********

 ** Profile: "Example PS.4.1-transient"  [ C:\Documents and Settings\Administrator\My Documents\SPICE Examples Converted\Appendix B-P


 ****     INITIAL TRANSIENT SOLUTION       TEMPERATURE =   27.000 DEG C

 ****     CURRENT STEP                     PARAM RLOAD =  250   


******************************************************************************



 NODE   VOLTAGE     NODE   VOLTAGE     NODE   VOLTAGE     NODE   VOLTAGE


(    1)    0.0000  (    2)    0.0000  (    3)-3.177E-09  (    4)-3.177E-09      

(    5)-3.177E-09  (    6) 23.05E-09  (    7) 23.05E-09  (X_Z1.3)-4.226E-09     

(X_Z1.4)    4.9000 




    VOLTAGE SOURCE CURRENTS
    NAME         CURRENT

    V_Vsin       0.000E+00
    X_Z1.Vz0    -1.049E-10

    TOTAL POWER DISSIPATION   5.14E-10  WATTS


**** 10/09/09 21:32:32 ********* PSpice 9.2 (Mar 2000) ******** ID# 0 ********

 ** Profile: "Example PS.4.1-transient"  [ C:\Documents and Settings\Administrator\My Documents\SPICE Examples Converted\Appendix B-P


 ****     INITIAL TRANSIENT SOLUTION       TEMPERATURE =   27.000 DEG C

 ****     CURRENT STEP                     PARAM RLOAD =  500   


******************************************************************************



 NODE   VOLTAGE     NODE   VOLTAGE     NODE   VOLTAGE     NODE   VOLTAGE


(    1)    0.0000  (    2)    0.0000  (    3)-3.177E-09  (    4)-3.177E-09      

(    5)-3.177E-09  (    6) 49.27E-09  (    7) 49.27E-09  (X_Z1.3)-4.226E-09     

(X_Z1.4)    4.9000 




    VOLTAGE SOURCE CURRENTS
    NAME         CURRENT

    V_Vsin       0.000E+00
    X_Z1.Vz0    -1.049E-10

    TOTAL POWER DISSIPATION   5.14E-10  WATTS



          JOB CONCLUDED

          TOTAL JOB TIME            4.34
