
**** 10/01/03 21:46:35 ******* PSpice 9.2.3WU (Sep 2002) ****** ID# 1111111111 
 ** Profile: "Example 14.6-Transient"  [ C:\Documents and Settings\Adel Sedra\My Documents\SEDRA WORK\SEDRA-PSPICE-CD\CHAPTER 14\chap


 ****     CIRCUIT DESCRIPTION


******************************************************************************




** Creating circuit file "chapter 14-Example 14.6-Transient.sim.cir" 
** WARNING: THIS AUTOMATICALLY GENERATED FILE MAY BE OVERWRITTEN BY SUBSEQUENT SIMULATIONS

*Libraries: 
* Local Libraries :
.LIB "..\sedra_lib.lib" 
* From [PSPICE NETLIST] section of e:\cadence\tools\PSpice\PSpice.ini file:
.lib "nom.lib" 

*Analysis directives: 
.TRAN  0 15m 0 1u 
.FOUR 1K 10 V([OUT]) 
.PROBE V(alias(*)) I(alias(*)) W(alias(*)) D(alias(*)) NOISE(alias(*)) 
.INC ".\chapter 14-Example 14.6.net" 



**** INCLUDING "chapter 14-Example 14.6.net" ****
* source CHAPTER 14
V_Vin         IN 0  
+SIN 0 17.9 1K 0 0 0
V_+VCC         VCC 0 {VCC}
V_-VCC         0 -VCC {VCC}
Q_QP         -VCC IN OUT QMJE253
R_RL         OUT 0  {RL}  
Q_QN         VCC IN OUT QMJE243 
.PARAM  VCC=23 RL=8

**** RESUMING "chapter 14-Example 14.6-Transient.sim.cir" ****
.END

**** 10/01/03 21:46:35 ******* PSpice 9.2.3WU (Sep 2002) ****** ID# 1111111111 
 ** Profile: "Example 14.6-Transient"  [ C:\Documents and Settings\Adel Sedra\My Documents\SEDRA WORK\SEDRA-PSPICE-CD\CHAPTER 14\chap


 ****     BJT MODEL PARAMETERS


******************************************************************************




               QMJE253         QMJE243         
               PNP             NPN             
          IS  252.937000E-15    1.273570E-12 
          EG    1.05            1.05         
          BF   54.36          188.792        
          NF    1.01478         1.05658      
         VAF    4.91894        13.5417       
         IKF     .84154          .442678     
         ISE  632.316000E-15  100.000000E-18 
          NE    3.6001          4            
          BR    3.71504         1.73115      
          NR    1.15303         1.04113      
         VAR   49.1894        135.417        
         IKR    4.42705         1.00889      
         ISC  632.316000E-15  100.000000E-18 
          NC    2.93783         2.93725      
          RB  417.673         193.999        
         RBM  992.345000E-06  841.015000E-06 
         IRB    7.102490E-06   52.923500E-06 
          RE   66.825700E-06   94.425700E-06 
          RC     .262081         .216999     
         CJE  157.797000E-12  219.516000E-12 
         VJE     .99             .99         
         MJE     .339209         .39332      
         CJC   65.485600E-12   74.390900E-12 
         VJC     .03286          .4          
         MJC     .208693         .287382     
        XCJC     .8              .799998     
         MJS     .5              .5          
          FC     .532891         .577401     
          TF    2.586030E-09    1.519160E-09 
         XTF    1.5             1.21445      
         VTF     .999999       11.3491       
         ITF    1               9.853400E-03 
          TR  783.777000E-09  776.174000E-09 
         XTB    1.32735         1.16682      
         XTI     .01             .80411      
          CN    2.2             2.42         
           D     .52             .87         


**** 10/01/03 21:46:35 ******* PSpice 9.2.3WU (Sep 2002) ****** ID# 1111111111 
 ** Profile: "Example 14.6-Transient"  [ C:\Documents and Settings\Adel Sedra\My Documents\SEDRA WORK\SEDRA-PSPICE-CD\CHAPTER 14\chap


 ****     INITIAL TRANSIENT SOLUTION       TEMPERATURE =   27.000 DEG C


******************************************************************************



 NODE   VOLTAGE     NODE   VOLTAGE     NODE   VOLTAGE     NODE   VOLTAGE


(   IN)    0.0000  (  OUT)-531.8E-12  (  VCC)   23.0000  ( -VCC)  -23.0000  




    VOLTAGE SOURCE CURRENTS
    NAME         CURRENT

    V_Vin        7.130E-12
    V_+VCC      -7.952E-11
    V_-VCC      -1.389E-10

    TOTAL POWER DISSIPATION   5.02E-09  WATTS


**** 10/01/03 21:46:35 ******* PSpice 9.2.3WU (Sep 2002) ****** ID# 1111111111 
 ** Profile: "Example 14.6-Transient"  [ C:\Documents and Settings\Adel Sedra\My Documents\SEDRA WORK\SEDRA-PSPICE-CD\CHAPTER 14\chap


 ****     FOURIER ANALYSIS                 TEMPERATURE =   27.000 DEG C


******************************************************************************



FOURIER COMPONENTS OF TRANSIENT RESPONSE V(OUT)



 DC COMPONENT =  -1.525223E-02

 HARMONIC   FREQUENCY    FOURIER    NORMALIZED    PHASE        NORMALIZED
    NO         (HZ)     COMPONENT    COMPONENT    (DEG)       PHASE (DEG)

     1     1.000E+03    1.674E+01    1.000E+00   -2.290E-03    0.000E+00
     2     2.000E+03    9.089E-03    5.428E-04    9.043E+01    9.044E+01
     3     3.000E+03    2.747E-01    1.641E-02   -1.799E+02   -1.799E+02
     4     4.000E+03    4.075E-03    2.434E-04    9.036E+01    9.037E+01
     5     5.000E+03    1.739E-01    1.039E-02   -1.799E+02   -1.799E+02
     6     6.000E+03    5.835E-04    3.485E-05    9.157E+01    9.158E+01
     7     7.000E+03    1.195E-01    7.140E-03   -1.800E+02   -1.799E+02
     8     8.000E+03    5.759E-04    3.440E-05    9.123E+01    9.125E+01
     9     9.000E+03    9.090E-02    5.429E-03   -1.800E+02   -1.799E+02
    10     1.000E+04    3.252E-04    1.942E-05    9.120E+01    9.123E+01


     TOTAL HARMONIC DISTORTION =   2.139992E+00 PERCENT


          JOB CONCLUDED

**** 10/01/03 21:46:35 ******* PSpice 9.2.3WU (Sep 2002) ****** ID# 1111111111 
 ** Profile: "Example 14.6-Transient"  [ C:\Documents and Settings\Adel Sedra\My Documents\SEDRA WORK\SEDRA-PSPICE-CD\CHAPTER 14\chap


 ****     JOB STATISTICS SUMMARY


******************************************************************************



  Total job time (using Solver 1)   =        3.61
